Timestamp,Source,Direction,Message
12:23:37.590,COM15,SYS,Opened COM15 @ 9600 N81.0
12:23:37.642,COM15,RX,Read Holding Regs  unit=1  addr=25012  qty=1  [CRC FAIL calc=A59D recv=A5B9]
12:23:37.642,COM15,   ,RAW: 01 03 61 B4 00 01 DB D0 01 03 02 00 7C B9 A5
12:23:38.660,COM15,RX,Read Holding Regs  unit=1  addr=16  qty=18  [CRC OK]
12:23:38.660,COM15,   ,RAW: 01 03 00 10 00 12 C4 02
12:23:38.805,COM15,RX,Read Holding Regs  unit=1  addr=9216  qty=82  [CRC OK]
12:23:38.805,COM15,   ,RAW: 01 03 24 00 00 52 FF 00 00 53 4C 00 00 52 59 00 02 E7 C6 00 02 E9 F4 00 02 EA 84 00 05 08 60 00 05 0D D6 00 05 0B 2D E5 73
12:23:38.837,COM15,RX,Read Holding Regs  unit=1  addr=102  qty=16  [CRC OK]
12:23:38.837,COM15,   ,RAW: 01 03 00 66 00 10 A4 19
12:23:38.963,COM15,RX,Read Holding Regs  unit=1  addr=8192  qty=4736  [CRC OK]
12:23:38.964,COM15,   ,RAW: 01 03 20 00 12 80 59 00 00 00 00 00 12 84 7F 00 00 00 00 00 00 00 00 00 00 00 00 00 00 00 00 00 00 C6 43 9D 66
12:23:38.995,COM15,RX,Read Holding Regs  unit=1  addr=166  qty=36  [CRC OK]
12:23:38.995,COM15,   ,RAW: 01 03 00 A6 00 24 A5 F2
12:23:39.266,COM15,RX,Read Holding Regs  unit=1  addr=18441  qty=47440  [CRC OK]
12:23:39.267,COM15,   ,RAW: 01 03 48 09 B9 50 34 00 08 D4 AF 09 FB 4D 37 00 12 4A BE 00 0B 3B 78 00 97 81 64 05 C7 5D BA 00 03 25 A5 00 00 03 E7 00 1F 25 81 00 00 59 0C 00 1F 15 36 00 00 2E 21 00 00 00 03 00 11 72 2A 00 00 00 02 00 08 CF 46 00 00 13 89 9D 1B
12:23:39.314,COM15,RX,Read Holding Regs  unit=1  addr=25012  qty=1  [CRC FAIL calc=A59D recv=A5B9]
12:23:39.314,COM15,   ,RAW: 01 03 61 B4 00 01 DB D0 01 03 02 00 7C B9 A5
12:23:40.333,COM15,RX,Read Holding Regs  unit=1  addr=16  qty=18  [CRC OK]
12:23:40.333,COM15,   ,RAW: 01 03 00 10 00 12 C4 02
12:23:40.507,COM15,RX,Read Holding Regs  unit=1  addr=9216  qty=82  [CRC FAIL calc=02A4 recv=19A4]
12:23:40.507,COM15,   ,RAW: 01 03 24 00 00 52 B0 00 00 53 08 00 00 51 E2 00 02 E5 47 00 02 E8 D9 00 02 E9 F4 00 05 04 88 00 05 0D 4E 00 05 08 54 4C 2A 01 03 00 66 00 10 A4 19
12:23:40.664,COM15,RX,Read Holding Regs  unit=1  addr=8192  qty=4713  [CRC FAIL calc=E9A5 recv=F2A5]
12:23:40.664,COM15,   ,RAW: 01 03 20 00 12 69 1B 00 00 00 00 00 12 6B 45 00 00 00 00 00 00 00 00 00 00 00 00 00 00 00 00 00 00 8E C9 C3 BD 01 03 00 A6 00 24 A5 F2
12:23:40.904,COM15,RX,Read Holding Regs  unit=1  addr=18441  qty=47442  [CRC FAIL calc=8128 recv=00CA]
12:23:40.904,COM15,   ,RAW: 01 03 48 09 B9 52 D1 00 08 D4 AF 09 FB 4F D5 00 12 4A BE 00 0B 3B 78 00 97 81 64 05 C7 5D CA 00
12:23:40.967,COM15,RX,FC37  unit=3  [CRC FAIL calc=264E recv=D0DB]
12:23:40.967,COM15,   ,RAW: 03 25 A5 00 00 03 E8 00 1F 25 81 00 00 59 0C 00 1F 15 36 00 00 2E 21 00 00 00 03 00 11 72 2A 00 00 00 02 00 08 CF 46 00 00 13 89 28 31 01 03 61 B4 00 01 DB D0
12:23:40.999,COM15,RX,Read Holding Regs  unit=1  [CRC OK]
12:23:41.000,COM15,   ,RAW: 01 03 02 00 7C B9 A5
12:23:42.020,COM15,RX,Read Holding Regs  unit=1  addr=16  qty=18  [CRC OK]
12:23:42.020,COM15,   ,RAW: 01 03 00 10 00 12 C4 02
12:23:42.196,COM15,RX,Read Holding Regs  unit=1  addr=9216  qty=82  [CRC FAIL calc=02A4 recv=19A4]
12:23:42.196,COM15,   ,RAW: 01 03 24 00 00 52 C9 00 00 52 C6 00 00 51 FC 00 02 E7 55 00 02 EA 04 00 02 E9 4A 00 05 08 99 00 05 0C B7 00 05 09 49 8E 8F 01 03 00 66 00 10 A4 19
12:23:42.324,COM15,RX,Read Holding Regs  unit=1  addr=8192  qty=4716  [CRC OK]
12:23:42.324,COM15,   ,RAW: 01 03 20 00 12 6C 0E 00 00 00 00 00 12 6C D6 00 00 00 00 00 00 00 00 00 00 00 00 00 00 00 00 00 00 55 EC 16 50
12:23:42.356,COM15,RX,Read Holding Regs  unit=1  addr=166  qty=36  [CRC OK]
12:23:42.356,COM15,   ,RAW: 01 03 00 A6 00 24 A5 F2
12:23:42.580,COM15,RX,Read Holding Regs  unit=1  addr=18441  qty=47444  [CRC FAIL calc=33FA recv=00D1]
12:23:42.580,COM15,   ,RAW: 01 03 48 09 B9 54 21 00 08 D4 AF 09 FB 51 25 00 12 4A BE 00 0B 3B 78 00 97 81 64 05 C7 5D D1 00
12:23:42.627,COM15,RX,FC37  unit=3  [CRC FAIL calc=0BC0 recv=6EE1]
12:23:42.628,COM15,   ,RAW: 03 25 A5 00 00 03 E8 00 1F 25 81 00 00 59 0C 00 1F 15 36 00 00 2E 21 00 00 00 03 00 11 72 2A 00 00 00 02 00 08 CF 46 00 00 13 89 E1 6E
12:23:42.675,COM15,RX,Read Holding Regs  unit=1  addr=25012  qty=1  [CRC FAIL calc=A59D recv=A5B9]
12:23:42.675,COM15,   ,RAW: 01 03 61 B4 00 01 DB D0 01 03 02 00 7C B9 A5
12:23:43.696,COM15,RX,Read Holding Regs  unit=1  addr=16  qty=18  [CRC OK]
12:23:43.696,COM15,   ,RAW: 01 03 00 10 00 12 C4 02
12:23:43.872,COM15,RX,Read Holding Regs  unit=1  addr=9216  qty=83  [CRC FAIL calc=02A4 recv=19A4]
12:23:43.872,COM15,   ,RAW: 01 03 24 00 00 53 7D 00 00 53 85 00 00 51 FF 00 02 E9 64 00 02 E9 F9 00 02 E8 E7 00 05 0B 2F 00 05 0B 1A 00 05 0B 23 FB 18 01 03 00 66 00 10 A4 19
12:23:44.031,COM15,RX,Read Holding Regs  unit=1  addr=8192  qty=4737  [CRC FAIL calc=E9A5 recv=F2A5]
12:23:44.031,COM15,   ,RAW: 01 03 20 00 12 81 CC 00 00 00 00 00 12 86 91 00 00 00 00 00 00 00 00 00 00 00 00 00 00 00 00 00 00 D4 A4 AA BF 01 03 00 A6 00 24 A5 F2
12:23:44.255,COM15,RX,Read Holding Regs  unit=1  addr=18441  qty=47446  [CRC FAIL calc=35D1 recv=00EA]
12:23:44.255,COM15,   ,RAW: 01 03 48 09 B9 56 C2 00 08 D4 AF 09 FB 53 C6 00 12 4A BE 00 0B 3B 78 00 97 81 64 05 C7 5D EA 00
12:23:44.351,COM15,RX,FC37  unit=3  [CRC FAIL calc=34EF recv=A5B9]
12:23:44.351,COM15,   ,RAW: 03 25 A5 00 00 03 E7 00 1F 25 81 00 00 59 0C 00 1F 15 36 00 00 2E 21 00 00 00 03 00 11 72 2A 00 00 00 02 00 08 CF 46 00 00 13 89 C6 33 01 03 61 B4 00 01 DB D0 01 03 02 00 7C B9 A5
12:23:45.375,COM15,RX,Read Holding Regs  unit=1  addr=16  qty=18  [CRC OK]
12:23:45.376,COM15,   ,RAW: 01 03 00 10 00 12 C4 02
12:23:45.536,COM15,RX,Read Holding Regs  unit=1  addr=9216  qty=83  [CRC FAIL calc=02A4 recv=19A4]
12:23:45.536,COM15,   ,RAW: 01 03 24 00 00 53 1B 00 00 52 CB 00 00 52 B0 00 02 E8 0E 00 02 E9 EE 00 02 EA 7B 00 05 08 B2 00 05 0D 98 00 05 0B 78 8D E5 01 03 00 66 00 10 A4 19
12:23:45.696,COM15,RX,Read Holding Regs  unit=1  addr=8192  qty=4734  [CRC FAIL calc=E9A5 recv=F2A5]
12:23:45.696,COM15,   ,RAW: 01 03 20 00 12 7E BD 00 00 00 00 00 12 82 FB 00 00 00 00 00 00 00 00 00 00 00 00 00 00 00 00 00 00 C8 86 DA 3C 01 03 00 A6 00 24 A5 F2
12:23:45.936,COM15,RX,Read Holding Regs  unit=1  addr=18441  qty=47449  [CRC FAIL calc=D880 recv=0003]
12:23:45.936,COM15,   ,RAW: 01 03 48 09 B9 59 62 00 08 D4 AF 09 FB 56 68 00 12 4A BE 00 0B 3B 78 00 97 81 64 05 C7 5E 03 00
12:23:46.001,COM15,RX,FC37  unit=3  [CRC FAIL calc=78CC recv=D0DB]
12:23:46.001,COM15,   ,RAW: 03 25 A5 00 00 03 E7 00 1F 25 81 00 00 59 0C 00 1F 15 36 00 00 2E 21 00 00 00 03 00 11 72 2A 00 00 00 02 00 08 CF 46 00 00 13 89 EC 94 01 03 61 B4 00 01 DB D0
12:23:46.032,COM15,RX,Read Holding Regs  unit=1  [CRC OK]
12:23:46.032,COM15,   ,RAW: 01 03 02 00 7C B9 A5
12:23:47.055,COM15,RX,Read Holding Regs  unit=1  addr=16  qty=18  [CRC OK]
12:23:47.055,COM15,   ,RAW: 01 03 00 10 00 12 C4 02
12:23:47.216,COM15,RX,Read Holding Regs  unit=1  addr=9216  qty=82  [CRC FAIL calc=02A4 recv=19A4]
12:23:47.216,COM15,   ,RAW: 01 03 24 00 00 52 66 00 00 52 B1 00 00 51 F4 00 02 E4 E2 00 02 E8 EF 00 02 E9 0E 00 05 04 AC 00 05 0C 95 00 05 06 D2 57 3E 01 03 00 66 00 10 A4 19
12:23:47.376,COM15,RX,Read Holding Regs  unit=1  addr=8192  qty=4701  [CRC FAIL calc=E9A5 recv=F2A5]
12:23:47.376,COM15,   ,RAW: 01 03 20 00 12 5D AF 00 00 00 00 00 12 5E 88 00 00 00 00 00 00 00 00 00 00 00 00 00 00 00 00 00 00 59 49 15 17 01 03 00 A6 00 24 A5 F2
12:23:47.615,COM15,RX,Read Holding Regs  unit=1  addr=18441  qty=47450  [CRC FAIL calc=A88B recv=0009]
12:23:47.616,COM15,   ,RAW: 01 03 48 09 B9 5A B1 00 08 D4 AF 09 FB 57 B6 00 12 4A BE 00 0B 3B 78 00 97 81 64 05 C7 5E 09 00
12:23:47.695,COM15,RX,FC37  unit=3  [CRC FAIL calc=1BE2 recv=A5B9]
12:23:47.695,COM15,   ,RAW: 03 25 A5 00 00 03 E8 00 1F 25 81 00 00 59 0C 00 1F 15 36 00 00 2E 21 00 00 00 03 00 11 72 2A 00 00 00 02 00 08 CF 46 00 00 13 89 96 A0 01 03 61 B4 00 01 DB D0 01 03 02 00 7C B9 A5
12:23:48.720,COM15,RX,Read Holding Regs  unit=1  addr=16  qty=18  [CRC OK]
12:23:48.720,COM15,   ,RAW: 01 03 00 10 00 12 C4 02
12:23:48.912,COM15,RX,Read Holding Regs  unit=1  addr=9216  qty=82  [CRC FAIL calc=02A4 recv=19A4]
12:23:48.912,COM15,   ,RAW: 01 03 24 00 00 52 AC 00 00 52 DD 00 00 53 0E 00 02 E8 D1 00 02 EA 8B 00 02 E9 33 00 05 0A FB 00 05 0C 63 00 05 0A 8E 3E 73 01 03 00 66 00 10 A4 19
12:23:49.056,COM15,RX,Read Holding Regs  unit=1  addr=8192  qty=4736  [CRC FAIL calc=E9A5 recv=F2A5]
12:23:49.056,COM15,   ,RAW: 01 03 20 00 12 80 A7 00 00 00 00 00 12 82 5D 00 00 00 00 00 00 00 00 00 00 00 00 00 00 00 00 00 00 7F 76 4C F5 01 03 00 A6 00 24 A5 F2
12:23:49.295,COM15,RX,Read Holding Regs  unit=1  addr=18441  qty=47453  [CRC FAIL calc=EB2D recv=0018]
12:23:49.295,COM15,   ,RAW: 01 03 48 09 B9 5D 50 00 08 D4 AF 09 FB 5A 55 00 12 4A BE 00 0B 3B 78 00 97 81 64 05 C7 5E 18 00
12:23:49.375,COM15,RX,FC37  unit=3  [CRC FAIL calc=F882 recv=A5B9]
12:23:49.375,COM15,   ,RAW: 03 25 A5 00 00 03 E8 00 1F 25 81 00 00 59 0C 00 1F 15 36 00 00 2E 21 00 00 00 03 00 11 72 2A 00 00 00 02 00 08 CF 46 00 00 13 88 55 82 01 03 61 B4 00 01 DB D0 01 03 02 00 7C B9 A5
12:23:50.413,COM15,RX,Read Holding Regs  unit=1  addr=16  qty=18  [CRC OK]
12:23:50.413,COM15,   ,RAW: 01 03 00 10 00 12 C4 02
12:23:50.557,COM15,RX,Read Holding Regs  unit=1  addr=9216  qty=83  [CRC OK]
12:23:50.557,COM15,   ,RAW: 01 03 24 00 00 53 AA 00 00 53 F6 00 00 51 FA 00 02 E8 F9 00 02 EA 03 00 02 E8 38 00 05 0B 20 00 05 0A 96 00 05 09 E0 56 B4
12:23:50.589,COM15,RX,Read Holding Regs  unit=1  addr=102  qty=16  [CRC OK]
12:23:50.589,COM15,   ,RAW: 01 03 00 66 00 10 A4 19
12:23:50.717,COM15,RX,Read Holding Regs  unit=1  addr=8192  qty=4746  [CRC OK]
12:23:50.717,COM15,   ,RAW: 01 03 20 00 12 8A 49 00 00 00 00 00 12 8F 6A 00 00 00 00 00 00 00 00 00 00 00 00 00 00 00 00 00 00 D7 76 E0 EA
12:23:50.748,COM15,RX,Read Holding Regs  unit=1  addr=166  qty=36  [CRC OK]
12:23:50.748,COM15,   ,RAW: 01 03 00 A6 00 24 A5 F2
12:23:50.973,COM15,RX,Read Holding Regs  unit=1  addr=18441  qty=47455  [CRC FAIL calc=D594 recv=0037]
12:23:50.973,COM15,   ,RAW: 01 03 48 09 B9 5F F4 00 08 D4 AF 09 FB 5C F9 00 12 4A BE 00 0B 3B 78 00 97 81 64 05 C7 5E 37 00
12:23:51.053,COM15,RX,FC37  unit=3  [CRC FAIL calc=4259 recv=A5B9]
12:23:51.053,COM15,   ,RAW: 03 25 A5 00 00 03 E7 00 1F 25 81 00 00 59 0C 00 1F 15 36 00 00 2E 21 00 00 00 03 00 11 72 2A 00 00 00 02 00 08 CF 46 00 00 13 88 DC DE 01 03 61 B4 00 01 DB D0 01 03 02 00 7C B9 A5
12:23:52.093,COM15,RX,Read Holding Regs  unit=1  addr=16  qty=18  [CRC OK]
12:23:52.093,COM15,   ,RAW: 01 03 00 10 00 12 C4 02
12:23:52.253,COM15,RX,Read Holding Regs  unit=1  addr=9216  qty=82  [CRC FAIL calc=02A4 recv=19A4]
12:23:52.253,COM15,   ,RAW: 01 03 24 00 00 52 F5 00 00 53 1C 00 00 52 1A 00 02 E6 35 00 02 E9 2B 00 02 E9 AA 00 05 06 29 00 05 0C D0 00 05 08 DB C2 64 01 03 00 66 00 10 A4 19
12:23:52.380,COM15,RX,Read Holding Regs  unit=1  addr=8192  qty=4723  [CRC OK]
12:23:52.380,COM15,   ,RAW: 01 03 20 00 12 73 96 00 00 00 00 00 12 76 E3 00 00 00 00 00 00 00 00 00 00 00 00 00 00 00 00 00 00 B0 97 51 35
12:23:52.412,COM15,RX,Read Holding Regs  unit=1  addr=166  qty=36  [CRC OK]
12:23:52.412,COM15,   ,RAW: 01 03 00 A6 00 24 A5 F2
12:23:52.650,COM15,RX,Read Holding Regs  unit=1  addr=18441  qty=47457  [CRC FAIL calc=194E recv=0043]
12:23:52.650,COM15,   ,RAW: 01 03 48 09 B9 61 43 00 08 D4 AF 09 FB 5E 49 00 12 4A BE 00 0B 3B 78 00 97 81 64 05 C7 5E 43 00
12:23:52.730,COM15,RX,FC37  unit=3  [CRC FAIL calc=9916 recv=A5B9]
12:23:52.730,COM15,   ,RAW: 03 25 A5 00 00 03 E7 00 1F 25 81 00 00 59 0C 00 1F 15 36 00 00 2E 21 00 00 00 03 00 11 72 2A 00 00 00 02 00 08 CF 46 00 00 13 88 76 BA 01 03 61 B4 00 01 DB D0 01 03 02 00 7C B9 A5
12:23:53.753,COM15,RX,Read Holding Regs  unit=1  addr=16  qty=18  [CRC OK]
12:23:53.753,COM15,   ,RAW: 01 03 00 10 00 12 C4 02
12:23:53.930,COM15,RX,Read Holding Regs  unit=1  addr=9216  qty=82  [CRC FAIL calc=02A4 recv=19A4]
12:23:53.930,COM15,   ,RAW: 01 03 24 00 00 52 81 00 00 52 77 00 00 52 44 00 02 E6 87 00 02 E9 E2 00 02 E9 10 00 05 07 A5 00 05 0C BE 00 05 08 30 40 F5 01 03 00 66 00 10 A4 19
12:23:54.089,COM15,RX,Read Holding Regs  unit=1  addr=8192  qty=4709  [CRC FAIL calc=E9A5 recv=F2A5]
12:23:54.089,COM15,   ,RAW: 01 03 20 00 12 65 76 00 00 00 00 00 12 66 1C 00 00 00 00 00 00 00 00 00 00 00 00 00 00 00 00 00 00 4D F9 83 4C 01 03 00 A6 00 24 A5 F2
12:23:54.327,COM15,RX,Read Holding Regs  unit=1  addr=18441  qty=47459  [CRC FAIL calc=C06B recv=0050]
12:23:54.327,COM15,   ,RAW: 01 03 48 09 B9 63 E1 00 08 D4 AF 09 FB 60 E8 00 12 4A BE 00 0B 3B 78 00 97 81 64 05 C7 5E 50 00
12:23:54.407,COM15,RX,FC37  unit=3  [CRC FAIL calc=F3FF recv=A5B9]
12:23:54.407,COM15,   ,RAW: 03 25 A5 00 00 03 E8 00 1F 25 81 00 00 59 0C 00 1F 15 36 00 00 2E 21 00 00 00 03 00 11 72 2A 00 00 00 02 00 08 CF 46 00 00 13 89 0A 21 01 03 61 B4 00 01 DB D0 01 03 02 00 7C B9 A5
12:23:55.430,COM15,RX,Read Holding Regs  unit=1  addr=16  qty=18  [CRC OK]
12:23:55.430,COM15,   ,RAW: 01 03 00 10 00 12 C4 02
12:23:55.603,COM15,RX,Read Holding Regs  unit=1  addr=9216  qty=82  [CRC FAIL calc=02A4 recv=19A4]
12:23:55.603,COM15,   ,RAW: 01 03 24 00 00 52 9F 00 00 53 3A 00 00 52 9C 00 02 E8 EE 00 02 EA D0 00 02 E9 D4 00 05 0B 09 00 05 0D 5F 00 05 0A E1 8A E7 01 03 00 66 00 10 A4 19
12:23:55.731,COM15,RX,Read Holding Regs  unit=1  addr=8192  qty=4737  [CRC OK]
12:23:55.732,COM15,   ,RAW: 01 03 20 00 12 81 86 00 00 00 00 00 12 90 13 00 00 00 00 00 00 00 00 00 00 00 00 00 00 00 00 00 00 CA 6A E9 FB
12:23:55.763,COM15,RX,Read Holding Regs  unit=1  addr=166  qty=36  [CRC OK]
12:23:55.763,COM15,   ,RAW: 01 03 00 A6 00 24 A5 F2
12:23:55.986,COM15,RX,Read Holding Regs  unit=1  addr=18441  qty=47462  [CRC FAIL calc=59B7 recv=0066]
12:23:55.986,COM15,   ,RAW: 01 03 48 09 B9 66 84 00 08 D4 AF 09 FB 63 8A 00 12 4A BE 00 0B 3B 78 00 97 81 64 05 C7 5E 66 00
12:23:56.034,COM15,RX,FC37  unit=3  [CRC FAIL calc=FB7E recv=A983]
12:23:56.034,COM15,   ,RAW: 03 25 A5 00 00 03 E7 00 1F 25 81 00 00 59 0C 00 1F 15 36 00 00 2E 21 00 00 00 03 00 11 72 2A 00 00 00 02 00 08 CF 46 00 00 13 89 83 A9
12:23:56.081,COM15,RX,Read Holding Regs  unit=1  addr=25012  qty=1  [CRC FAIL calc=A59D recv=A5B9]
12:23:56.081,COM15,   ,RAW: 01 03 61 B4 00 01 DB D0 01 03 02 00 7C B9 A5
12:23:57.103,COM15,RX,Read Holding Regs  unit=1  addr=16  qty=18  [CRC OK]
12:23:57.103,COM15,   ,RAW: 01 03 00 10 00 12 C4 02
12:23:57.245,COM15,RX,Read Holding Regs  unit=1  addr=9216  qty=83  [CRC OK]
12:23:57.245,COM15,   ,RAW: 01 03 24 00 00 53 67 00 00 53 5E 00 00 52 A3 00 02 E9 16 00 02 EA 2A 00 02 EA 2F 00 05 0A 56 00 05 0C F3 00 05 0C 27 2D E5
12:23:57.277,COM15,RX,Read Holding Regs  unit=1  addr=102  qty=16  [CRC OK]
12:23:57.277,COM15,   ,RAW: 01 03 00 66 00 10 A4 19
12:23:57.404,COM15,RX,Read Holding Regs  unit=1  addr=8192  qty=4750  [CRC OK]
12:23:57.404,COM15,   ,RAW: 01 03 20 00 12 8E 05 00 00 00 00 00 12 93 18 00 00 00 00 00 00 00 00 00 00 00 00 00 00 00 00 00 00 DB A3 A6 81
12:23:57.436,COM15,RX,Read Holding Regs  unit=1  addr=166  qty=36  [CRC OK]
12:23:57.436,COM15,   ,RAW: 01 03 00 A6 00 24 A5 F2
12:23:57.660,COM15,RX,Read Holding Regs  unit=1  addr=18441  qty=47463  [CRC FAIL calc=D84C recv=0076]
12:23:57.660,COM15,   ,RAW: 01 03 48 09 B9 67 D5 00 08 D4 AF 09 FB 64 DC 00 12 4A BE 00 0B 3B 78 00 97 81 64 05 C7 5E 76 00
12:23:57.724,COM15,RX,FC37  unit=3  [CRC FAIL calc=57F6 recv=D0DB]
12:23:57.725,COM15,   ,RAW: 03 25 A5 00 00 03 E7 00 1F 25 81 00 00 59 0C 00 1F 15 36 00 00 2E 21 00 00 00 03 00 11 72 2A 00 00 00 02 00 08 CF 46 00 00 13 88 F6 53 01 03 61 B4 00 01 DB D0
12:23:57.756,COM15,RX,Read Holding Regs  unit=1  [CRC OK]
12:23:57.756,COM15,   ,RAW: 01 03 02 00 7C B9 A5
12:23:58.777,COM15,RX,Read Holding Regs  unit=1  addr=16  qty=18  [CRC OK]
12:23:58.777,COM15,   ,RAW: 01 03 00 10 00 12 C4 02
12:23:58.937,COM15,RX,Read Holding Regs  unit=1  addr=9216  qty=82  [CRC FAIL calc=02A4 recv=19A4]
12:23:58.937,COM15,   ,RAW: 01 03 24 00 00 52 A1 00 00 52 D0 00 00 52 22 00 02 E5 4A 00 02 E9 91 00 02 E9 C2 00 05 05 79 00 05 0D E5 00 05 07 B8 19 B4 01 03 00 66 00 10 A4 19
12:23:59.097,COM15,RX,Read Holding Regs  unit=1  addr=8192  qty=4714  [CRC FAIL calc=E9A5 recv=F2A5]
12:23:59.097,COM15,   ,RAW: 01 03 20 00 12 6A DB 00 00 00 00 00 12 6C 74 00 00 00 00 00 00 00 00 00 00 00 00 00 00 00 00 00 00 7A D6 D4 11 01 03 00 A6 00 24 A5 F2
12:23:59.337,COM15,RX,Read Holding Regs  unit=1  addr=18441  qty=47466  [CRC FAIL calc=460D recv=008C]
12:23:59.337,COM15,   ,RAW: 01 03 48 09 B9 6A 74 00 08 D4 AF 09 FB 67 7D 00 12 4A BE 00 0B 3B 78 00 97 81 64 05 C7 5E 8C 00
12:23:59.416,COM15,RX,FC37  unit=3  [CRC FAIL calc=8481 recv=A5B9]
12:23:59.416,COM15,   ,RAW: 03 25 A5 00 00 03 E8 00 1F 25 81 00 00 59 0C 00 1F 15 36 00 00 2E 21 00 00 00 03 00 11 72 2A 00 00 00 02 00 08 CF 46 00 00 13 89 06 53 01 03 61 B4 00 01 DB D0 01 03 02 00 7C B9 A5
12:24:00.438,COM15,RX,Read Holding Regs  unit=1  addr=16  qty=18  [CRC OK]
12:24:00.438,COM15,   ,RAW: 01 03 00 10 00 12 C4 02
12:24:00.612,COM15,RX,Read Holding Regs  unit=1  addr=9216  qty=82  [CRC FAIL calc=02A4 recv=19A4]
12:24:00.612,COM15,   ,RAW: 01 03 24 00 00 52 BF 00 00 52 BB 00 00 52 2A 00 02 E6 1D 00 02 EA 26 00 02 E9 70 00 05 0A 88 00 05 0D 0B 00 05 0A 3B 78 2A 01 03 00 66 00 10 A4 19
12:24:00.772,COM15,RX,Read Holding Regs  unit=1  addr=8192  qty=4718  [CRC FAIL calc=E9A5 recv=F2A5]
12:24:00.772,COM15,   ,RAW: 01 03 20 00 12 6E 3F 00 00 00 00 00 12 84 78 00 00 00 00 00 00 00 00 00 00 00 00 00 00 00 00 00 00 62 EB B3 43 01 03 00 A6 00 24 A5 F2
12:24:00.995,COM15,RX,Read Holding Regs  unit=1  addr=18441  qty=47469  [CRC FAIL calc=BAED recv=0099]
12:24:00.996,COM15,   ,RAW: 01 03 48 09 B9 6D 15 00 08 D4 AF 09 FB 6A 1D 00 12 4A BE 00 0B 3B 78 00 97 81 64 05 C7 5E 99 00
12:24:01.090,COM15,RX,FC37  unit=3  [CRC FAIL calc=8487 recv=A5B9]
12:24:01.090,COM15,   ,RAW: 03 25 A5 00 00 03 E8 00 1F 25 81 00 00 59 0C 00 1F 15 36 00 00 2E 21 00 00 00 03 00 11 72 2A 00 00 00 02 00 08 CF 46 00 00 13 89 D9 CB 01 03 61 B4 00 01 DB D0 01 03 02 00 7C B9 A5
12:24:02.109,COM15,RX,Read Holding Regs  unit=1  addr=16  qty=18  [CRC OK]
12:24:02.109,COM15,   ,RAW: 01 03 00 10 00 12 C4 02
12:24:02.286,COM15,RX,Read Holding Regs  unit=1  addr=9216  qty=83  [CRC FAIL calc=02A4 recv=19A4]
12:24:02.286,COM15,   ,RAW: 01 03 24 00 00 53 4F 00 00 53 BC 00 00 52 C3 00 02 E9 69 00 02 EA CD 00 02 E9 46 00 05 0B EA 00 05 0C 71 00 05 0B 2C 5A 71 01 03 00 66 00 10 A4 19
12:24:02.414,COM15,RX,Read Holding Regs  unit=1  addr=8192  qty=4759  [CRC OK]
12:24:02.415,COM15,   ,RAW: 01 03 20 00 12 97 3D 00 00 00 00 00 12 9A 48 00 00 00 00 00 00 00 00 00 00 00 00 00 00 00 00 00 00 AA 2D 14 F0
12:24:02.447,COM15,RX,Read Holding Regs  unit=1  addr=166  qty=36  [CRC OK]
12:24:02.447,COM15,   ,RAW: 01 03 00 A6 00 24 A5 F2
12:24:02.671,COM15,RX,Read Holding Regs  unit=1  addr=18441  qty=47470  [CRC FAIL calc=9F70 recv=00A4]
12:24:02.671,COM15,   ,RAW: 01 03 48 09 B9 6E 67 00 08 D4 AF 09 FB 6B 70 00 12 4A BE 00 0B 3B 78 00 97 81 64 05 C7 5E A4 00
12:24:02.735,COM15,RX,FC37  unit=3  [CRC FAIL calc=902C recv=D0DB]
12:24:02.735,COM15,   ,RAW: 03 25 A5 00 00 03 E7 00 1F 25 81 00 00 59 0C 00 1F 15 36 00 00 2E 21 00 00 00 03 00 11 72 2A 00 00 00 02 00 08 CF 46 00 00 13 89 40 CF 01 03 61 B4 00 01 DB D0
12:24:02.767,COM15,RX,Read Holding Regs  unit=1  [CRC OK]
12:24:02.767,COM15,   ,RAW: 01 03 02 00 7C B9 A5
12:24:03.791,COM15,RX,Read Holding Regs  unit=1  addr=16  qty=18  [CRC OK]
12:24:03.791,COM15,   ,RAW: 01 03 00 10 00 12 C4 02
12:24:03.966,COM15,RX,Read Holding Regs  unit=1  addr=9216  qty=83  [CRC FAIL calc=02A4 recv=19A4]
12:24:03.966,COM15,   ,RAW: 01 03 24 00 00 53 72 00 00 53 86 00 00 52 A8 00 02 E7 74 00 02 EA 48 00 02 EA BE 00 05 08 41 00 05 0E A2 00 05 0A E5 3E E2 01 03 00 66 00 10 A4 19
12:24:04.094,COM15,RX,Read Holding Regs  unit=1  addr=8192  qty=4756  [CRC OK]
12:24:04.094,COM15,   ,RAW: 01 03 20 00 12 94 84 00 00 00 00 00 12 98 88 00 00 00 00 00 00 00 00 00 00 00 00 00 00 00 00 00 00 C3 8C 4A F6
12:24:04.126,COM15,RX,Read Holding Regs  unit=1  addr=166  qty=36  [CRC OK]
12:24:04.126,COM15,   ,RAW: 01 03 00 A6 00 24 A5 F2
12:24:04.350,COM15,RX,Read Holding Regs  unit=1  addr=18441  qty=47473  [CRC FAIL calc=3829 recv=00C1]
12:24:04.351,COM15,   ,RAW: 01 03 48 09 B9 71 0D 00 08 D4 AF 09 FB 6E 15 00 12 4A BE 00 0B 3B 78 00 97 81 64 05 C7 5E C1 00
12:24:04.414,COM15,RX,FC37  unit=3  [CRC FAIL calc=BBDB recv=D0DB]
12:24:04.414,COM15,   ,RAW: 03 25 A5 00 00 03 E7 00 1F 25 81 00 00 59 0C 00 1F 15 36 00 00 2E 21 00 00 00 03 00 11 72 2A 00 00 00 02 00 08 CF 46 00 00 13 89 30 3F 01 03 61 B4 00 01 DB D0
12:24:04.446,COM15,RX,Read Holding Regs  unit=1  [CRC OK]
12:24:04.446,COM15,   ,RAW: 01 03 02 00 7C B9 A5
12:24:05.468,COM15,RX,Read Holding Regs  unit=1  addr=16  qty=18  [CRC OK]
12:24:05.468,COM15,   ,RAW: 01 03 00 10 00 12 C4 02
12:24:05.644,COM15,RX,Read Holding Regs  unit=1  addr=9216  qty=83  [CRC FAIL calc=02A4 recv=19A4]
12:24:05.644,COM15,   ,RAW: 01 03 24 00 00 53 33 00 00 53 24 00 00 52 33 00 02 E5 6F 00 02 E9 84 00 02 E9 24 00 05 05 ED 00 05 0D 0A 00 05 07 38 51 93 01 03 00 66 00 10 A4 19
12:24:05.804,COM15,RX,Read Holding Regs  unit=1  addr=8192  qty=4725  [CRC FAIL calc=E9A5 recv=F2A5]
12:24:05.804,COM15,   ,RAW: 01 03 20 00 12 75 DA 00 00 00 00 00 12 76 A1 00 00 00 00 00 00 00 00 00 00 00 00 00 00 00 00 00 00 55 A6 B2 8E 01 03 00 A6 00 24 A5 F2
12:24:06.028,COM15,RX,Read Holding Regs  unit=1  addr=18441  qty=47475  [CRC FAIL calc=202D recv=00D1]
12:24:06.028,COM15,   ,RAW: 01 03 48 09 B9 73 AD 00 08 D4 AF 09 FB 70 B6 00 12 4A BE 00 0B 3B 78 00 97 81 64 05 C7 5E D1 00
12:24:06.076,COM15,RX,FC37  unit=3  [CRC FAIL calc=0BC0 recv=D6C7]
12:24:06.077,COM15,   ,RAW: 03 25 A5 00 00 03 E8 00 1F 25 81 00 00 59 0C 00 1F 15 36 00 00 2E 21 00 00 00 03 00 11 72 2A 00 00 00 02 00 08 CF 46 00 00 13 89 C7 D6
12:24:06.124,COM15,RX,Read Holding Regs  unit=1  addr=25012  qty=1  [CRC FAIL calc=A59D recv=A5B9]
12:24:06.124,COM15,   ,RAW: 01 03 61 B4 00 01 DB D0 01 03 02 00 7C B9 A5
12:24:07.145,COM15,RX,Read Holding Regs  unit=1  addr=16  qty=18  [CRC OK]
12:24:07.145,COM15,   ,RAW: 01 03 00 10 00 12 C4 02
12:24:07.289,COM15,RX,Read Holding Regs  unit=1  addr=9216  qty=83  [CRC OK]
12:24:07.289,COM15,   ,RAW: 01 03 24 00 00 53 1A 00 00 53 4C 00 00 52 A3 00 02 E7 97 00 02 EA 43 00 02 E9 1F 00 05 09 41 00 05 0C AE 00 05 09 3E 39 6A
12:24:07.321,COM15,RX,Read Holding Regs  unit=1  addr=102  qty=16  [CRC OK]
12:24:07.321,COM15,   ,RAW: 01 03 00 66 00 10 A4 19
12:24:07.466,COM15,RX,Read Holding Regs  unit=1  addr=8192  qty=4744  [CRC FAIL calc=E9A5 recv=F2A5]
12:24:07.466,COM15,   ,RAW: 01 03 20 00 12 88 80 00 00 00 00 00 12 89 71 00 00 00 00 00 00 00 00 00 00 00 00 00 00 00 00 00 00 5E 91 4B CF 01 03 00 A6 00 24 A5 F2
12:24:07.706,COM15,RX,Read Holding Regs  unit=1  addr=18441  qty=47476  [CRC FAIL calc=43CC recv=00D9]
12:24:07.706,COM15,   ,RAW: 01 03 48 09 B9 74 FE 00 08 D4 AF 09 FB 72 08 00 12 4A BE 00 0B 3B 78 00 97 81 64 05 C7 5E D9 00
12:24:07.802,COM15,RX,FC37  unit=3  [CRC FAIL calc=7028 recv=A5B9]
12:24:07.802,COM15,   ,RAW: 03 25 A5 00 00 03 E8 00 1F 25 81 00 00 59 0C 00 1F 15 36 00 00 2E 21 00 00 00 03 00 11 72 2A 00 00 00 02 00 08 CF 46 00 00 13 89 7B 46 01 03 61 B4 00 01 DB D0 01 03 02 00 7C B9 A5
12:24:08.814,COM15,RX,Read Holding Regs  unit=1  addr=16  qty=18  [CRC OK]
12:24:08.814,COM15,   ,RAW: 01 03 00 10 00 12 C4 02
12:24:08.990,COM15,RX,Read Holding Regs  unit=1  addr=9216  qty=83  [CRC FAIL calc=02A4 recv=19A4]
12:24:08.990,COM15,   ,RAW: 01 03 24 00 00 53 E0 00 00 54 1A 00 00 53 08 00 02 E8 8D 00 02 E9 FF 00 02 E9 0F 00 05 0A 27 00 05 0B CA 00 05 0A 56 97 2E 01 03 00 66 00 10 A4 19
12:24:09.133,COM15,RX,Read Holding Regs  unit=1  addr=8192  qty=4775  [CRC FAIL calc=E9A5 recv=F2A5]
12:24:09.133,COM15,   ,RAW: 01 03 20 00 12 A7 5F 00 00 00 00 00 12 AC 67 00 00 00 00 00 00 00 00 00 00 00 00 00 00 00 00 00 00 DB 46 D8 A4 01 03 00 A6 00 24 A5 F2
12:24:09.372,COM15,RX,Read Holding Regs  unit=1  addr=18441  qty=47479  [CRC FAIL calc=24D7 recv=00F3]
12:24:09.372,COM15,   ,RAW: 01 03 48 09 B9 77 A5 00 08 D4 AF 09 FB 74 AE 00 12 4A BE 00 0B 3B 78 00 97 81 64 05 C7 5E F3 00
12:24:09.435,COM15,RX,FC37  unit=3  [CRC FAIL calc=D950 recv=D0DB]
12:24:09.435,COM15,   ,RAW: 03 25 A5 00 00 03 E7 00 1F 25 81 00 00 59 0C 00 1F 15 36 00 00 2E 21 00 00 00 03 00 11 72 2A 00 00 00 02 00 08 CF 46 00 00 13 89 7D 80 01 03 61 B4 00 01 DB D0
12:24:09.467,COM15,RX,Read Holding Regs  unit=1  [CRC OK]
12:24:09.467,COM15,   ,RAW: 01 03 02 00 7C B9 A5
12:24:10.484,COM15,RX,Read Holding Regs  unit=1  addr=16  qty=18  [CRC OK]
12:24:10.484,COM15,   ,RAW: 01 03 00 10 00 12 C4 02
12:24:10.627,COM15,RX,Read Holding Regs  unit=1  addr=9216  qty=83  [CRC OK]
12:24:10.627,COM15,   ,RAW: 01 03 24 00 00 53 BE 00 00 53 E9 00 00 52 7E 00 02 E5 84 00 02 E9 50 00 02 E9 F5 00 05 05 57 00 05 0D B6 00 05 08 54 A1 20
12:24:10.659,COM15,RX,Read Holding Regs  unit=1  addr=102  qty=16  [CRC OK]
12:24:10.659,COM15,   ,RAW: 01 03 00 66 00 10 A4 19
12:24:10.801,COM15,RX,Read Holding Regs  unit=1  addr=8192  qty=4747  [CRC FAIL calc=E9A5 recv=F2A5]
12:24:10.801,COM15,   ,RAW: 01 03 20 00 12 8B 60 00 00 00 00 00 12 8D E1 00 00 00 00 00 00 00 00 00 00 00 00 00 00 00 00 00 00 9A 4F 52 A5 01 03 00 A6 00 24 A5 F2
12:24:11.041,COM15,RX,Read Holding Regs  unit=1  addr=18441  qty=47482  [CRC FAIL calc=3E94 recv=000C]
12:24:11.041,COM15,   ,RAW: 01 03 48 09 B9 7A 49 00 08 D4 AF 09 FB 77 53 00 12 4A BE 00 0B 3B 78 00 97 81 64 05 C7 5F 0C 00
12:24:11.136,COM15,RX,FC37  unit=3  [CRC FAIL calc=791E recv=A5B9]
12:24:11.136,COM15,   ,RAW: 03 25 A5 00 00 03 E7 00 1F 25 81 00 00 59 0C 00 1F 15 36 00 00 2E 21 00 00 00 03 00 11 72 2A 00 00 00 02 00 08 CF 46 00 00 13 89 E1 A4 01 03 61 B4 00 01 DB D0 01 03 02 00 7C B9 A5
12:24:12.156,COM15,RX,Read Holding Regs  unit=1  addr=16  qty=18  [CRC OK]
12:24:12.156,COM15,   ,RAW: 01 03 00 10 00 12 C4 02
12:24:12.314,COM15,RX,Read Holding Regs  unit=1  addr=9216  qty=83  [CRC FAIL calc=02A4 recv=19A4]
12:24:12.314,COM15,   ,RAW: 01 03 24 00 00 53 00 00 00 53 4C 00 00 52 43 00 02 E5 66 00 02 E9 50 00 02 E9 54 00 05 05 8A 00 05 0D 0D 00 05 07 82 8F 24 01 03 00 66 00 10 A4 19
12:24:12.473,COM15,RX,Read Holding Regs  unit=1  addr=8192  qty=4732  [CRC FAIL calc=E9A5 recv=F2A5]
12:24:12.473,COM15,   ,RAW: 01 03 20 00 12 7C 8E 00 00 00 00 00 12 7D 75 00 00 00 00 00 00 00 00 00 00 00 00 00 00 00 00 00 00 5C 82 C7 54 01 03 00 A6 00 24 A5 F2
12:24:12.712,COM15,RX,Read Holding Regs  unit=1  addr=18441  qty=47483  [CRC FAIL calc=118F recv=0013]
12:24:12.712,COM15,   ,RAW: 01 03 48 09 B9 7B 9A 00 08 D4 AF 09 FB 78 A4 00 12 4A BE 00 0B 3B 78 00 97 81 64 05 C7 5F 13 00
12:24:12.807,COM15,RX,FC37  unit=3  [CRC FAIL calc=AF2A recv=A5B9]
12:24:12.807,COM15,   ,RAW: 03 25 A5 00 00 03 E8 00 1F 25 81 00 00 59 0C 00 1F 15 36 00 00 2E 21 00 00 00 03 00 11 72 2A 00 00 00 02 00 08 CF 46 00 00 13 8A 2B 54 01 03 61 B4 00 01 DB D0 01 03 02 00 7C B9 A5
12:24:13.826,COM15,RX,Read Holding Regs  unit=1  addr=16  qty=18  [CRC OK]
12:24:13.826,COM15,   ,RAW: 01 03 00 10 00 12 C4 02
12:24:13.968,COM15,RX,Read Holding Regs  unit=1  addr=9216  qty=83  [CRC OK]
12:24:13.968,COM15,   ,RAW: 01 03 24 00 00 53 99 00 00 53 C8 00 00 52 F6 00 02 E9 2B 00 02 EA BC 00 02 E9 87 00 05 0B 6A 00 05 0C CB 00 05 0B 3A 2E D5
12:24:14.000,COM15,RX,Read Holding Regs  unit=1  addr=102  qty=16  [CRC OK]
12:24:14.000,COM15,   ,RAW: 01 03 00 66 00 10 A4 19
12:24:14.143,COM15,RX,Read Holding Regs  unit=1  addr=8192  qty=4771  [CRC FAIL calc=E9A5 recv=F2A5]
12:24:14.143,COM15,   ,RAW: 01 03 20 00 12 A3 59 00 00 00 00 00 12 A5 56 00 00 00 00 00 00 00 00 00 00 00 00 00 00 00 00 00 00 89 B1 5F 0E 01 03 00 A6 00 24 A5 F2
12:24:14.382,COM15,RX,Read Holding Regs  unit=1  addr=18441  qty=47486  [CRC FAIL calc=707F recv=0023]
12:24:14.382,COM15,   ,RAW: 01 03 48 09 B9 7E 3E 00 08 D4 AF 09 FB 7B 49 00 12 4A BE 00 0B 3B 78 00 97 81 64 05 C7 5F 23 00
12:24:14.477,COM15,RX,FC37  unit=3  [CRC FAIL calc=D086 recv=A5B9]
12:24:14.477,COM15,   ,RAW: 03 25 A5 00 00 03 E8 00 1F 25 81 00 00 59 0C 00 1F 15 36 00 00 2E 21 00 00 00 03 00 11 72 2A 00 00 00 02 00 08 CF 46 00 00 13 89 73 E0 01 03 61 B4 00 01 DB D0 01 03 02 00 7C B9 A5
12:24:15.496,COM15,RX,Read Holding Regs  unit=1  addr=16  qty=18  [CRC OK]
12:24:15.496,COM15,   ,RAW: 01 03 00 10 00 12 C4 02
12:24:15.638,COM15,RX,Read Holding Regs  unit=1  addr=9216  qty=84  [CRC OK]
12:24:15.638,COM15,   ,RAW: 01 03 24 00 00 54 24 00 00 54 0B 00 00 52 CE 00 02 E8 24 00 02 EA 7B 00 02 E9 F9 00 05 09 BA 00 05 0D 99 00 05 0A AA 23 50
12:24:15.670,COM15,RX,Read Holding Regs  unit=1  addr=102  qty=16  [CRC OK]
12:24:15.670,COM15,   ,RAW: 01 03 00 66 00 10 A4 19
12:24:15.813,COM15,RX,Read Holding Regs  unit=1  addr=8192  qty=4781  [CRC FAIL calc=E9A5 recv=F2A5]
12:24:15.813,COM15,   ,RAW: 01 03 20 00 12 AD B4 00 00 00 00 00 12 B2 01 00 00 00 00 00 00 00 00 00 00 00 00 00 00 00 00 00 00 CA E3 29 CA 01 03 00 A6 00 24 A5 F2
12:24:16.051,COM15,RX,Read Holding Regs  unit=1  addr=18441  qty=47488  [CRC FAIL calc=6D9E recv=0041]
12:24:16.051,COM15,   ,RAW: 01 03 48 09 B9 80 E7 00 08 D4 AF 09 FB 7D F1 00 12 4A BE 00 0B 3B 78 00 97 81 64 05 C7 5F 41 00
12:24:16.098,COM15,RX,FC37  unit=3  [CRC FAIL calc=FB7E recv=ED4A]
12:24:16.098,COM15,   ,RAW: 03 25 A5 00 00 03 E7 00 1F 25 81 00 00 59 0C 00 1F 15 36 00 00 2E 21 00 00 00 03 00 11 72 2A 00 00 00 02 00 08 CF 46 00 00 13 89 4A ED
12:24:16.146,COM15,RX,Read Holding Regs  unit=1  addr=25012  qty=1  [CRC FAIL calc=A59D recv=A5B9]
12:24:16.146,COM15,   ,RAW: 01 03 61 B4 00 01 DB D0 01 03 02 00 7C B9 A5
12:24:17.165,COM15,RX,Read Holding Regs  unit=1  addr=16  qty=18  [CRC OK]
12:24:17.165,COM15,   ,RAW: 01 03 00 10 00 12 C4 02
12:24:17.309,COM15,RX,Read Holding Regs  unit=1  addr=9216  qty=83  [CRC OK]
12:24:17.309,COM15,   ,RAW: 01 03 24 00 00 53 C0 00 00 53 A1 00 00 52 B5 00 02 E5 EB 00 02 E9 35 00 02 EA 15 00 05 05 A1 00 05 0D 82 00 05 08 FB 4B 1A
12:24:17.340,COM15,RX,Read Holding Regs  unit=1  addr=102  qty=16  [CRC OK]
12:24:17.340,COM15,   ,RAW: 01 03 00 66 00 10 A4 19
12:24:17.483,COM15,RX,Read Holding Regs  unit=1  addr=8192  qty=4761  [CRC FAIL calc=E9A5 recv=F2A5]
12:24:17.483,COM15,   ,RAW: 01 03 20 00 12 99 24 00 00 00 00 00 12 9C 2A 00 00 00 00 00 00 00 00 00 00 00 00 00 00 00 00 00 00 A9 AF F3 BC 01 03 00 A6 00 24 A5 F2
12:24:17.721,COM15,RX,Read Holding Regs  unit=1  addr=18441  qty=47490  [CRC FAIL calc=A196 recv=004D]
12:24:17.721,COM15,   ,RAW: 01 03 48 09 B9 82 39 00 08 D4 AF 09 FB 7F 44 00 12 4A BE 00 0B 3B 78 00 97 81 64 05 C7 5F 4D 00
12:24:17.817,COM15,RX,FC37  unit=3  [CRC FAIL calc=8C79 recv=A5B9]
12:24:17.817,COM15,   ,RAW: 03 25 A5 00 00 03 E7 00 1F 25 81 00 00 59 0C 00 1F 15 36 00 00 2E 21 00 00 00 03 00 11 72 2A 00 00 00 02 00 08 CF 46 00 00 13 8A D4 77 01 03 61 B4 00 01 DB D0 01 03 02 00 7C B9 A5
12:24:18.838,COM15,RX,Read Holding Regs  unit=1  addr=16  qty=18  [CRC OK]
12:24:18.838,COM15,   ,RAW: 01 03 00 10 00 12 C4 02
12:24:18.997,COM15,RX,Read Holding Regs  unit=1  addr=9216  qty=83  [CRC FAIL calc=02A4 recv=19A4]
12:24:18.997,COM15,   ,RAW: 01 03 24 00 00 53 49 00 00 53 62 00 00 52 B3 00 02 E6 E7 00 02 EA 21 00 02 E9 84 00 05 08 17 00 05 0D 57 00 05 09 02 7B 3D 01 03 00 66 00 10 A4 19
12:24:19.155,COM15,RX,Read Holding Regs  unit=1  addr=8192  qty=4751  [CRC FAIL calc=E9A5 recv=F2A5]
12:24:19.155,COM15,   ,RAW: 01 03 20 00 12 8F 79 00 00 00 00 00 12 90 3B 00 00 00 00 00 00 00 00 00 00 00 00 00 00 00 00 00 00 54 E8 E4 CF 01 03 00 A6 00 24 A5 F2
12:24:19.394,COM15,RX,Read Holding Regs  unit=1  addr=18441  qty=47492  [CRC FAIL calc=2340 recv=005A]
12:24:19.394,COM15,   ,RAW: 01 03 48 09 B9 84 DB 00 08 D4 AF 09 FB 81 E8 00 12 4A BE 00 0B 3B 78 00 97 81 64 05 C7 5F 5A 00
12:24:19.475,COM15,RX,FC37  unit=3  [CRC FAIL calc=1A24 recv=A5B9]
12:24:19.475,COM15,   ,RAW: 03 25 A5 00 00 03 E8 00 1F 25 81 00 00 59 0C 00 1F 15 36 00 00 2E 21 00 00 00 03 00 11 72 2A 00 00 00 02 00 08 CF 46 00 00 13 8A 09 F8 01 03 61 B4 00 01 DB D0 01 03 02 00 7C B9 A5
12:24:20.513,COM15,RX,Read Holding Regs  unit=1  addr=16  qty=18  [CRC OK]
12:24:20.513,COM15,   ,RAW: 01 03 00 10 00 12 C4 02
12:24:20.657,COM15,RX,Read Holding Regs  unit=1  addr=9216  qty=84  [CRC OK]
12:24:20.657,COM15,   ,RAW: 01 03 24 00 00 54 1B 00 00 54 59 00 00 53 38 00 02 E8 E3 00 02 EA 91 00 02 E9 19 00 05 0B 23 00 05 0C 4D 00 05 0A 7B A7 13
12:24:20.688,COM15,RX,Read Holding Regs  unit=1  addr=102  qty=16  [CRC OK]
12:24:20.689,COM15,   ,RAW: 01 03 00 66 00 10 A4 19
12:24:20.832,COM15,RX,Read Holding Regs  unit=1  addr=8192  qty=4790  [CRC FAIL calc=E9A5 recv=F2A5]
12:24:20.832,COM15,   ,RAW: 01 03 20 00 12 B6 6F 00 00 00 00 00 12 BA E3 00 00 00 00 00 00 00 00 00 00 00 00 00 00 00 00 00 00 CE A0 67 A1 01 03 00 A6 00 24 A5 F2
12:24:21.069,COM15,RX,Read Holding Regs  unit=1  addr=18441  qty=47495  [CRC FAIL calc=9900 recv=0072]
12:24:21.069,COM15,   ,RAW: 01 03 48 09 B9 87 84 00 08 D4 AF 09 FB 84 90 00 12 4A BE 00 0B 3B 78 00 97 81 64 05 C7 5F 72 00
12:24:21.118,COM15,RX,FC37  unit=3  [CRC FAIL calc=FA3E recv=9338]
12:24:21.118,COM15,   ,RAW: 03 25 A5 00 00 03 E7 00 1F 25 81 00 00 59 0C 00 1F 15 36 00 00 2E 21 00 00 00 03 00 11 72 2A 00 00 00 02 00 08 CF 46 00 00 13 8A 38 93
12:24:21.166,COM15,RX,Read Holding Regs  unit=1  addr=25012  qty=1  [CRC FAIL calc=A59D recv=A5B9]
12:24:21.166,COM15,   ,RAW: 01 03 61 B4 00 01 DB D0 01 03 02 00 7C B9 A5
12:24:22.175,COM15,RX,Read Holding Regs  unit=1  addr=16  qty=18  [CRC OK]
12:24:22.175,COM15,   ,RAW: 01 03 00 10 00 12 C4 02
12:24:22.351,COM15,RX,Read Holding Regs  unit=1  addr=9216  qty=84  [CRC FAIL calc=02A4 recv=19A4]
12:24:22.351,COM15,   ,RAW: 01 03 24 00 00 54 4B 00 00 54 4F 00 00 52 FE 00 02 E8 13 00 02 EA 98 00 02 E9 D6 00 05 09 DC 00 05 0D 9C 00 05 0A 5B 27 C7 01 03 00 66 00 10 A4 19
12:24:22.511,COM15,RX,Read Holding Regs  unit=1  addr=8192  qty=4791  [CRC FAIL calc=E9A5 recv=F2A5]
12:24:22.511,COM15,   ,RAW: 01 03 20 00 12 B7 04 00 00 00 00 00 12 BB A8 00 00 00 00 00 00 00 00 00 00 00 00 00 00 00 00 00 00 D2 FE 8B FE 01 03 00 A6 00 24 A5 F2
12:24:22.750,COM15,RX,Read Holding Regs  unit=1  addr=18441  qty=47496  [CRC FAIL calc=E7DD recv=008D]
12:24:22.750,COM15,   ,RAW: 01 03 48 09 B9 88 D8 00 08 D4 AF 09 FB 85 E5 00 12 4A BE 00 0B 3B 78 00 97 81 64 05 C7 5F 8D 00
12:24:22.830,COM15,RX,FC37  unit=3  [CRC FAIL calc=3B39 recv=A5B9]
12:24:22.830,COM15,   ,RAW: 03 25 A5 00 00 03 E7 00 1F 25 81 00 00 59 0C 00 1F 15 36 00 00 2E 21 00 00 00 03 00 11 72 2A 00 00 00 02 00 08 CF 46 00 00 13 8A FD DE 01 03 61 B4 00 01 DB D0 01 03 02 00 7C B9 A5
12:24:23.851,COM15,RX,Read Holding Regs  unit=1  addr=16  qty=18  [CRC OK]
12:24:23.851,COM15,   ,RAW: 01 03 00 10 00 12 C4 02
12:24:24.026,COM15,RX,Read Holding Regs  unit=1  addr=9216  qty=83  [CRC FAIL calc=02A4 recv=19A4]
12:24:24.026,COM15,   ,RAW: 01 03 24 00 00 53 B5 00 00 53 7F 00 00 52 7C 00 02 E4 AB 00 02 E8 7E 00 02 E9 54 00 05 03 BD 00 05 0C 83 00 05 07 27 67 36 01 03 00 66 00 10 A4 19
12:24:24.154,COM15,RX,Read Holding Regs  unit=1  addr=8192  qty=4750  [CRC OK]
12:24:24.154,COM15,   ,RAW: 01 03 20 00 12 8E 31 00 00 00 00 00 12 8F 83 00 00 00 00 00 00 00 00 00 00 00 00 00 00 00 00 00 00 70 05 B3 92
12:24:24.185,COM15,RX,Read Holding Regs  unit=1  addr=166  qty=36  [CRC OK]
12:24:24.186,COM15,   ,RAW: 01 03 00 A6 00 24 A5 F2
12:24:24.408,COM15,RX,Read Holding Regs  unit=1  addr=18441  qty=47499  [CRC FAIL calc=492F recv=0096]
12:24:24.408,COM15,   ,RAW: 01 03 48 09 B9 8B 7E 00 08 D4 AF 09 FB 88 8B 00 12 4A BE 00 0B 3B 78 00 97 81 64 05 C7 5F 96 00
12:24:24.455,COM15,RX,FC37  unit=3  [CRC FAIL calc=0A80 recv=B6A6]
12:24:24.455,COM15,   ,RAW: 03 25 A5 00 00 03 E8 00 1F 25 81 00 00 59 0C 00 1F 15 36 00 00 2E 21 00 00 00 03 00 11 72 2A 00 00 00 02 00 08 CF 46 00 00 13 8A A6 B6
12:24:24.502,COM15,RX,Read Holding Regs  unit=1  addr=25012  qty=1  [CRC FAIL calc=A59D recv=A5B9]
12:24:24.502,COM15,   ,RAW: 01 03 61 B4 00 01 DB D0 01 03 02 00 7C B9 A5
12:24:25.523,COM15,RX,Read Holding Regs  unit=1  addr=16  qty=18  [CRC OK]
12:24:25.524,COM15,   ,RAW: 01 03 00 10 00 12 C4 02
12:24:25.698,COM15,RX,Read Holding Regs  unit=1  addr=9216  qty=83  [CRC FAIL calc=02A4 recv=19A4]
12:24:25.698,COM15,   ,RAW: 01 03 24 00 00 53 BF 00 00 53 E9 00 00 53 1D 00 02 E7 BD 00 02 E9 DC 00 02 E9 08 00 05 09 02 00 05 0C 08 00 05 09 89 25 60 01 03 00 66 00 10 A4 19
12:24:25.860,COM15,RX,Read Holding Regs  unit=1  addr=8192  qty=4775  [CRC FAIL calc=E9A5 recv=F2A5]
12:24:25.860,COM15,   ,RAW: 01 03 20 00 12 A7 62 00 00 00 00 00 12 A8 98 00 00 00 00 00 00 00 00 00 00 00 00 00 00 00 00 00 00 6B 95 72 26 01 03 00 A6 00 24 A5 F2
12:24:26.098,COM15,RX,Read Holding Regs  unit=1  addr=18441  qty=47502  [CRC FAIL calc=A3CE recv=00A3]
12:24:26.099,COM15,   ,RAW: 01 03 48 09 B9 8E 22 00 08 D4 AF 09 FB 8B 2F 00 12 4A BE 00 0B 3B 78 00 97 81 64 05 C7 5F A3 00
12:24:26.179,COM15,RX,FC37  unit=3  [CRC FAIL calc=0648 recv=A5B9]
12:24:26.179,COM15,   ,RAW: 03 25 A5 00 00 03 E8 00 1F 25 81 00 00 59 0C 00 1F 15 36 00 00 2E 21 00 00 00 03 00 11 72 2A 00 00 00 02 00 08 CF 46 00 00 13 8A 48 14 01 03 61 B4 00 01 DB D0 01 03 02 00 7C B9 A5
12:24:27.201,COM15,RX,Read Holding Regs  unit=1  addr=16  qty=18  [CRC OK]
12:24:27.201,COM15,   ,RAW: 01 03 00 10 00 12 C4 02
12:24:27.392,COM15,RX,Read Holding Regs  unit=1  addr=9216  qty=84  [CRC FAIL calc=02A4 recv=19A4]
12:24:27.392,COM15,   ,RAW: 01 03 24 00 00 54 2B 00 00 54 59 00 00 53 5B 00 02 E8 6C 00 02 E9 EF 00 02 E8 86 00 05 0A 2F 00 05 0B 29 00 05 09 AC D5 AC 01 03 00 66 00 10 A4 19
12:24:27.536,COM15,RX,Read Holding Regs  unit=1  addr=8192  qty=4791  [CRC FAIL calc=E9A5 recv=F2A5]
12:24:27.536,COM15,   ,RAW: 01 03 20 00 12 B7 E5 00 00 00 00 00 12 BB C8 00 00 00 00 00 00 00 00 00 00 00 00 00 00 00 00 00 00 C1 1A 2F 8A 01 03 00 A6 00 24 A5 F2
12:24:27.776,COM15,RX,Read Holding Regs  unit=1  addr=18441  qty=47503  [CRC FAIL calc=7677 recv=00C0]
12:24:27.776,COM15,   ,RAW: 01 03 48 09 B9 8F 78 00 08 D4 AF 09 FB 8C 85 00 12 4A BE 00 0B 3B 78 00 97 81 64 05 C7 5F C0 00
12:24:27.856,COM15,RX,FC37  unit=3  [CRC FAIL calc=33B8 recv=A5B9]
12:24:27.856,COM15,   ,RAW: 03 25 A5 00 00 03 E7 00 1F 25 81 00 00 59 0C 00 1F 15 36 00 00 2E 21 00 00 00 03 00 11 72 2A 00 00 00 02 00 08 CF 46 00 00 13 8B 5C FE 01 03 61 B4 00 01 DB D0 01 03 02 00 7C B9 A5
12:24:28.878,COM15,RX,Read Holding Regs  unit=1  addr=16  qty=18  [CRC OK]
12:24:28.878,COM15,   ,RAW: 01 03 00 10 00 12 C4 02
12:24:29.053,COM15,RX,Read Holding Regs  unit=1  addr=9216  qty=84  [CRC FAIL calc=02A4 recv=19A4]
12:24:29.053,COM15,   ,RAW: 01 03 24 00 00 54 16 00 00 54 1C 00 00 52 FF 00 02 E6 55 00 02 E9 39 00 02 E9 EA 00 05 06 36 00 05 0D 1F 00 05 09 3D C2 3B 01 03 00 66 00 10 A4 19
12:24:29.182,COM15,RX,Read Holding Regs  unit=1  addr=8192  qty=4780  [CRC OK]
12:24:29.182,COM15,   ,RAW: 01 03 20 00 12 AC CC 00 00 00 00 00 12 B0 92 00 00 00 00 00 00 00 00 00 00 00 00 00 00 00 00 00 00 BD FC 53 4B
12:24:29.214,COM15,RX,Read Holding Regs  unit=1  addr=166  qty=36  [CRC OK]
12:24:29.214,COM15,   ,RAW: 01 03 00 A6 00 24 A5 F2
12:24:29.436,COM15,RX,Read Holding Regs  unit=1  addr=18441  qty=47506  [CRC FAIL calc=F702 recv=00CD]
12:24:29.436,COM15,   ,RAW: 01 03 48 09 B9 92 21 00 08 D4 AF 09 FB 8F 2E 00 12 4A BE 00 0B 3B 78 00 97 81 64 05 C7 5F CD 00
12:24:29.485,COM15,RX,FC37  unit=3  [CRC FAIL calc=3AFF recv=74A7]
12:24:29.485,COM15,   ,RAW: 03 25 A5 00 00 03 E7 00 1F 25 81 00 00 59 0C 00 1F 15 36 00 00 2E 21 00 00 00 03 00 11 72 2A 00 00 00 02 00 08 CF 46 00 00 13 8B A7 74
12:24:29.533,COM15,RX,Read Holding Regs  unit=1  addr=25012  qty=1  [CRC FAIL calc=A59D recv=A5B9]
12:24:29.533,COM15,   ,RAW: 01 03 61 B4 00 01 DB D0 01 03 02 00 7C B9 A5
12:24:30.554,COM15,RX,Read Holding Regs  unit=1  addr=16  qty=18  [CRC OK]
12:24:30.555,COM15,   ,RAW: 01 03 00 10 00 12 C4 02
12:24:30.698,COM15,RX,Read Holding Regs  unit=1  addr=9216  qty=83  [CRC OK]
12:24:30.698,COM15,   ,RAW: 01 03 24 00 00 53 7F 00 00 53 9B 00 00 52 E8 00 02 E5 0C 00 02 E9 06 00 02 E8 84 00 05 05 44 00 05 0B F9 00 05 06 56 34 0B
12:24:30.730,COM15,RX,Read Holding Regs  unit=1  addr=102  qty=16  [CRC OK]
12:24:30.730,COM15,   ,RAW: 01 03 00 66 00 10 A4 19
12:24:30.874,COM15,RX,Read Holding Regs  unit=1  addr=8192  qty=4756  [CRC FAIL calc=E9A5 recv=F2A5]
12:24:30.874,COM15,   ,RAW: 01 03 20 00 12 94 78 00 00 00 00 00 12 95 2D 00 00 00 00 00 00 00 00 00 00 00 00 00 00 00 00 00 00 52 03 97 19 01 03 00 A6 00 24 A5 F2
12:24:31.113,COM15,RX,Read Holding Regs  unit=1  addr=18441  qty=47508  [CRC FAIL calc=05F6 recv=00DD]
12:24:31.113,COM15,   ,RAW: 01 03 48 09 B9 94 C4 00 08 D4 AF 09 FB 91 D3 00 12 4A BE 00 0B 3B 78 00 97 81 64 05 C7 5F DD 00
12:24:31.193,COM15,RX,FC37  unit=3  [CRC FAIL calc=0BFA recv=A5B9]
12:24:31.193,COM15,   ,RAW: 03 25 A5 00 00 03 E8 00 1F 25 81 00 00 59 0C 00 1F 15 36 00 00 2E 21 00 00 00 03 00 11 72 2A 00 00 00 02 00 08 CF 46 00 00 13 8B C1 2F 01 03 61 B4 00 01 DB D0 01 03 02 00 7C B9 A5
12:24:32.229,COM15,RX,Read Holding Regs  unit=1  addr=16  qty=18  [CRC OK]
12:24:32.229,COM15,   ,RAW: 01 03 00 10 00 12 C4 02
12:24:32.388,COM15,RX,Read Holding Regs  unit=1  addr=9216  qty=83  [CRC FAIL calc=02A4 recv=19A4]
12:24:32.388,COM15,   ,RAW: 01 03 24 00 00 53 B6 00 00 53 DE 00 00 53 38 00 02 E7 C5 00 02 EA 08 00 02 E9 2D 00 05 09 29 00 05 0C 5E 00 05 09 A6 4E B3 01 03 00 66 00 10 A4 19
12:24:32.548,COM15,RX,Read Holding Regs  unit=1  addr=8192  qty=4777  [CRC FAIL calc=E9A5 recv=F2A5]
12:24:32.548,COM15,   ,RAW: 01 03 20 00 12 A9 27 00 00 00 00 00 12 AA 43 00 00 00 00 00 00 00 00 00 00 00 00 00 00 00 00 00 00 66 F4 A6 B7 01 03 00 A6 00 24 A5 F2
12:24:32.788,COM15,RX,Read Holding Regs  unit=1  addr=18441  qty=47510  [CRC FAIL calc=CB3C recv=00F0]
12:24:32.788,COM15,   ,RAW: 01 03 48 09 B9 96 18 00 08 D4 AF 09 FB 94 7B 00 12 4A BE 00 0B 3B 78 00 97 81 64 05 C7 5F F0 00
12:24:32.868,COM15,RX,FC37  unit=3  [CRC FAIL calc=4E4B recv=A5B9]
12:24:32.868,COM15,   ,RAW: 03 25 A5 00 00 03 E7 00 1F 25 81 00 00 59 0C 00 1F 15 36 00 00 2E 21 00 00 00 03 00 11 72 2A 00 00 00 02 00 08 CF 46 00 00 13 8B 39 A8 01 03 61 B4 00 01 DB D0 01 03 02 00 7C B9 A5
12:24:33.907,COM15,RX,Read Holding Regs  unit=1  addr=16  qty=18  [CRC OK]
12:24:33.907,COM15,   ,RAW: 01 03 00 10 00 12 C4 02
12:24:34.068,COM15,RX,Read Holding Regs  unit=1  addr=9216  qty=84  [CRC FAIL calc=02A4 recv=19A4]
12:24:34.068,COM15,   ,RAW: 01 03 24 00 00 54 6B 00 00 54 87 00 00 53 85 00 02 E8 49 00 02 E9 FC 00 02 E9 64 00 05 09 A7 00 05 0C 4A 00 05 0A 6C 68 70 01 03 00 66 00 10 A4 19
12:24:34.228,COM15,RX,Read Holding Regs  unit=1  addr=8192  qty=4802  [CRC FAIL calc=E9A5 recv=F2A5]
12:24:34.228,COM15,   ,RAW: 01 03 20 00 12 C2 FD 00 00 00 00 00 12 C8 54 00 00 00 00 00 00 00 00 00 00 00 00 00 00 00 00 00 00 E2 99 60 FA 01 03 00 A6 00 24 A5 F2
12:24:34.466,COM15,RX,Read Holding Regs  unit=1  addr=18441  qty=47512  [CRC FAIL calc=F580 recv=0000]
12:24:34.466,COM15,   ,RAW: 01 03 48 09 B9 98 C2 00 08 D4 AF 09 FB 95 D0 00 12 4A BE 00 0B 3B 78 00 97 81 64 05 C7 60 00 00
12:24:34.547,COM15,RX,FC37  unit=3  [CRC FAIL calc=2C70 recv=A5B9]
12:24:34.547,COM15,   ,RAW: 03 25 A5 00 00 03 E7 00 1F 25 81 00 00 59 0C 00 1F 15 36 00 00 2E 21 00 00 00 03 00 11 72 2A 00 00 00 02 00 08 CF 46 00 00 13 8B 2E C4 01 03 61 B4 00 01 DB D0 01 03 02 00 7C B9 A5
12:24:35.585,COM15,RX,Read Holding Regs  unit=1  addr=16  qty=18  [CRC OK]
12:24:35.585,COM15,   ,RAW: 01 03 00 10 00 12 C4 02
12:24:35.729,COM15,RX,Read Holding Regs  unit=1  addr=9216  qty=83  [CRC OK]
12:24:35.729,COM15,   ,RAW: 01 03 24 00 00 53 F4 00 00 53 DB 00 00 53 04 00 02 E4 B1 00 02 E8 70 00 02 E9 A3 00 05 03 8E 00 05 0C C8 00 05 07 8C C2 C3
12:24:35.761,COM15,RX,Read Holding Regs  unit=1  addr=102  qty=16  [CRC OK]
12:24:35.761,COM15,   ,RAW: 01 03 00 66 00 10 A4 19
12:24:35.904,COM15,RX,Read Holding Regs  unit=1  addr=8192  qty=4771  [CRC FAIL calc=E9A5 recv=F2A5]
12:24:35.904,COM15,   ,RAW: 01 03 20 00 12 A3 BC 00 00 00 00 00 12 A5 C6 00 00 00 00 00 00 00 00 00 00 00 00 00 00 00 00 00 00 8B 80 D2 4D 01 03 00 A6 00 24 A5 F2
12:24:36.144,COM15,RX,Read Holding Regs  unit=1  addr=18441  qty=47515  [CRC FAIL calc=6C4C recv=0018]
12:24:36.144,COM15,   ,RAW: 01 03 48 09 B9 9B 6A 00 08 D4 AF 09 FB 98 79 00 12 4A BE 00 0B 3B 78 00 97 81 64 05 C7 60 18 00
12:24:36.223,COM15,RX,FC37  unit=3  [CRC FAIL calc=6A4D recv=A5B9]
12:24:36.223,COM15,   ,RAW: 03 25 A5 00 00 03 E8 00 1F 25 81 00 00 59 0C 00 1F 15 36 00 00 2E 21 00 00 00 03 00 11 72 2A 00 00 00 02 00 08 CF 46 00 00 13 8C 29 32 01 03 61 B4 00 01 DB D0 01 03 02 00 7C B9 A5
12:24:37.260,COM15,RX,Read Holding Regs  unit=1  addr=16  qty=18  [CRC OK]
12:24:37.260,COM15,   ,RAW: 01 03 00 10 00 12 C4 02
12:24:37.435,COM15,RX,Read Holding Regs  unit=1  addr=9216  qty=83  [CRC FAIL calc=02A4 recv=19A4]
12:24:37.436,COM15,   ,RAW: 01 03 24 00 00 53 9D 00 00 53 B0 00 00 53 14 00 02 E4 F7 00 02 E8 CD 00 02 E8 FB 00 05 04 A5 00 05 0C 49 00 05 06 EA AA 87 01 03 00 66 00 10 A4 19
12:24:37.563,COM15,RX,Read Holding Regs  unit=1  addr=8192  qty=4764  [CRC OK]
12:24:37.563,COM15,   ,RAW: 01 03 20 00 12 9C 35 00 00 00 00 00 12 9C F4 00 00 00 00 00 00 00 00 00 00 00 00 00 00 00 00 00 00 54 59 D9 94
12:24:37.595,COM15,RX,Read Holding Regs  unit=1  addr=166  qty=36  [CRC OK]
12:24:37.595,COM15,   ,RAW: 01 03 00 A6 00 24 A5 F2
12:24:37.820,COM15,RX,Read Holding Regs  unit=1  addr=18441  qty=47518  [CRC FAIL calc=1622 recv=0024]
12:24:37.820,COM15,   ,RAW: 01 03 48 09 B9 9E 11 00 08 D4 AF 09 FB 9B 20 00 12 4A BE 00 0B 3B 78 00 97 81 64 05 C7 60 24 00
12:24:37.868,COM15,RX,FC37  unit=3  [CRC FAIL calc=CA41 recv=45FF]
12:24:37.868,COM15,   ,RAW: 03 25 A5 00 00 03 E8 00 1F 25 81 00 00 59 0C 00 1F 15 36 00 00 2E 21 00 00 00 03 00 11 72 2A 00 00 00 02 00 08 CF 46 00 00 13 8B FF 45
12:24:37.915,COM15,RX,Read Holding Regs  unit=1  addr=25012  qty=1  [CRC FAIL calc=A59D recv=A5B9]
12:24:37.915,COM15,   ,RAW: 01 03 61 B4 00 01 DB D0 01 03 02 00 7C B9 A5
12:24:38.936,COM15,RX,Read Holding Regs  unit=1  addr=16  qty=18  [CRC OK]
12:24:38.936,COM15,   ,RAW: 01 03 00 10 00 12 C4 02
12:24:39.110,COM15,RX,Read Holding Regs  unit=1  addr=9216  qty=84  [CRC FAIL calc=02A4 recv=19A4]
12:24:39.111,COM15,   ,RAW: 01 03 24 00 00 54 67 00 00 54 68 00 00 53 81 00 02 E9 21 00 02 EA 16 00 02 E9 2F 00 05 0A CE 00 05 0B AA 00 05 0B 2B 15 13 01 03 00 66 00 10 A4 19
12:24:39.254,COM15,RX,Read Holding Regs  unit=1  addr=8192  qty=4805  [CRC FAIL calc=E9A5 recv=F2A5]
12:24:39.254,COM15,   ,RAW: 01 03 20 00 12 C5 94 00 00 00 00 00 12 C8 2A 00 00 00 00 00 00 00 00 00 00 00 00 00 00 00 00 00 00 9D B5 11 B9 01 03 00 A6 00 24 A5 F2
12:24:39.494,COM15,RX,Read Holding Regs  unit=1  addr=18441  qty=47519  [CRC FAIL calc=438B recv=0031]
12:24:39.494,COM15,   ,RAW: 01 03 48 09 B9 9F 66 00 08 D4 AF 09 FB 9C 76 00 12 4A BE 00 0B 3B 78 00 97 81 64 05 C7 60 31 00
12:24:39.573,COM15,RX,FC37  unit=3  [CRC FAIL calc=64A6 recv=A5B9]
12:24:39.573,COM15,   ,RAW: 03 25 A5 00 00 03 E7 00 1F 25 81 00 00 59 0C 00 1F 15 36 00 00 2E 21 00 00 00 03 00 11 72 2A 00 00 00 02 00 08 CF 46 00 00 13 8B E6 DA 01 03 61 B4 00 01 DB D0 01 03 02 00 7C B9 A5
12:24:40.611,COM15,RX,Read Holding Regs  unit=1  addr=16  qty=18  [CRC OK]
12:24:40.611,COM15,   ,RAW: 01 03 00 10 00 12 C4 02
12:24:40.786,COM15,RX,Read Holding Regs  unit=1  addr=9216  qty=84  [CRC FAIL calc=02A4 recv=19A4]
12:24:40.786,COM15,   ,RAW: 01 03 24 00 00 54 B4 00 00 54 A4 00 00 53 3E 00 02 E7 16 00 02 E9 93 00 02 E9 CC 00 05 07 8B 00 05 0C F3 00 05 09 C8 27 FD 01 03 00 66 00 10 A4 19
12:24:40.931,COM15,RX,Read Holding Regs  unit=1  addr=8192  qty=4807  [CRC FAIL calc=E9A5 recv=F2A5]
12:24:40.931,COM15,   ,RAW: 01 03 20 00 12 C7 90 00 00 00 00 00 12 CB C9 00 00 00 00 00 00 00 00 00 00 00 00 00 00 00 00 00 00 C9 88 5A 47 01 03 00 A6 00 24 A5 F2
12:24:41.170,COM15,RX,Read Holding Regs  unit=1  addr=18441  qty=47522  [CRC FAIL calc=49C4 recv=004F]
12:24:41.170,COM15,   ,RAW: 01 03 48 09 B9 A2 12 00 08 D4 AF 09 FB 9F 23 00 12 4A BE 00 0B 3B 78 00 97 81 64 05 C7 60 4F 00
12:24:41.217,COM15,RX,FC37  unit=3  [CRC FAIL calc=3AFF recv=3CDF]
12:24:41.218,COM15,   ,RAW: 03 25 A5 00 00 03 E7 00 1F 25 81 00 00 59 0C 00 1F 15 36 00 00 2E 21 00 00 00 03 00 11 72 2A 00 00 00 02 00 08 CF 46 00 00 13 8B DF 3C
12:24:41.265,COM15,RX,Read Holding Regs  unit=1  addr=25012  qty=1  [CRC FAIL calc=A59D recv=A5B9]
12:24:41.265,COM15,   ,RAW: 01 03 61 B4 00 01 DB D0 01 03 02 00 7C B9 A5
12:24:42.286,COM15,RX,Read Holding Regs  unit=1  addr=16  qty=18  [CRC OK]
12:24:42.286,COM15,   ,RAW: 01 03 00 10 00 12 C4 02
12:24:42.461,COM15,RX,Read Holding Regs  unit=1  addr=9216  qty=84  [CRC FAIL calc=02A4 recv=19A4]
12:24:42.461,COM15,   ,RAW: 01 03 24 00 00 54 58 00 00 54 41 00 00 53 11 00 02 E4 91 00 02 E7 FB 00 02 E9 2A 00 05 03 2B 00 05 0B C7 00 05 07 1C 30 9B 01 03 00 66 00 10 A4 19
12:24:42.621,COM15,RX,Read Holding Regs  unit=1  addr=8192  qty=4784  [CRC FAIL calc=E9A5 recv=F2A5]
12:24:42.621,COM15,   ,RAW: 01 03 20 00 12 B0 6A 00 00 00 00 00 12 B2 DE 00 00 00 00 00 00 00 00 00 00 00 00 00 00 00 00 00 00 99 40 FD F7 01 03 00 A6 00 24 A5 F2
12:24:42.861,COM15,RX,Read Holding Regs  unit=1  addr=18441  qty=47524  [CRC FAIL calc=FC38 recv=0060]
12:24:42.861,COM15,   ,RAW: 01 03 48 09 B9 A4 B9 00 08 D4 AF 09 FB A1 CA 00 12 4A BE 00 0B 3B 78 00 97 81 64 05 C7 60 60 00
12:24:42.941,COM15,RX,FC37  unit=3  [CRC FAIL calc=8742 recv=A5B9]
12:24:42.941,COM15,   ,RAW: 03 25 A5 00 00 03 E8 00 1F 25 81 00 00 59 0C 00 1F 15 36 00 00 2E 21 00 00 00 03 00 11 72 2A 00 00 00 02 00 08 CF 46 00 00 13 8B 5D 0A 01 03 61 B4 00 01 DB D0 01 03 02 00 7C B9 A5
12:24:43.962,COM15,RX,Read Holding Regs  unit=1  addr=16  qty=18  [CRC OK]
12:24:43.962,COM15,   ,RAW: 01 03 00 10 00 12 C4 02
12:24:44.137,COM15,RX,Read Holding Regs  unit=1  addr=9216  qty=83  [CRC FAIL calc=02A4 recv=19A4]
12:24:44.137,COM15,   ,RAW: 01 03 24 00 00 53 FD 00 00 54 0B 00 00 53 69 00 02 E6 F5 00 02 E8 F8 00 02 E9 09 00 05 07 10 00 05 0B 6F 00 05 09 30 DA 81 01 03 00 66 00 10 A4 19
12:24:44.297,COM15,RX,Read Holding Regs  unit=1  addr=8192  qty=4786  [CRC FAIL calc=E9A5 recv=F2A5]
12:24:44.297,COM15,   ,RAW: 01 03 20 00 12 B2 A0 00 00 00 00 00 12 B3 7C 00 00 00 00 00 00 00 00 00 00 00 00 00 00 00 00 00 00 5A B0 64 FA 01 03 00 A6 00 24 A5 F2
12:24:44.535,COM15,RX,Read Holding Regs  unit=1  addr=18441  qty=47526  [CRC FAIL calc=B42C recv=0067]
12:24:44.535,COM15,   ,RAW: 01 03 48 09 B9 A6 0D 00 08 D4 AF 09 FB A3 1E 00 12 4A BE 00 0B 3B 78 00 97 81 64 05 C7 60 67 00
12:24:44.614,COM15,RX,FC37  unit=3  [CRC FAIL calc=9DD4 recv=A5B9]
12:24:44.614,COM15,   ,RAW: 03 25 A5 00 00 03 E8 00 1F 25 81 00 00 59 0C 00 1F 15 36 00 00 2E 21 00 00 00 03 00 11 72 2A 00 00 00 02 00 08 CF 46 00 00 13 8B 8C 8C 01 03 61 B4 00 01 DB D0 01 03 02 00 7C B9 A5
12:24:45.638,COM15,RX,Read Holding Regs  unit=1  addr=16  qty=18  [CRC OK]
12:24:45.638,COM15,   ,RAW: 01 03 00 10 00 12 C4 02
12:24:45.813,COM15,RX,Read Holding Regs  unit=1  addr=9216  qty=84  [CRC FAIL calc=02A4 recv=19A4]
12:24:45.813,COM15,   ,RAW: 01 03 24 00 00 54 EF 00 00 55 16 00 00 53 E2 00 02 E8 64 00 02 EA 14 00 02 E8 E5 00 05 0A 23 00 05 0B C8 00 05 09 F0 AC 8C 01 03 00 66 00 10 A4 19
12:24:45.973,COM15,RX,Read Holding Regs  unit=1  addr=8192  qty=4829  [CRC FAIL calc=E9A5 recv=F2A5]
12:24:45.973,COM15,   ,RAW: 01 03 20 00 12 DD 9B 00 00 00 00 00 12 E2 E6 00 00 00 00 00 00 00 00 00 00 00 00 00 00 00 00 00 00 E2 26 36 4A 01 03 00 A6 00 24 A5 F2
12:24:46.213,COM15,RX,Read Holding Regs  unit=1  addr=18441  qty=47528  [CRC FAIL calc=9ABF recv=0081]
12:24:46.213,COM15,   ,RAW: 01 03 48 09 B9 A8 BB 00 08 D4 AF 09 FB A5 CC 00 12 4A BE 00 0B 3B 78 00 97 81 64 05 C7 60 81 00
12:24:46.245,COM15,RX,FC37  unit=3  [CRC FAIL calc=3AFF recv=8303]
12:24:46.245,COM15,   ,RAW: 03 25 A5 00 00 03 E7 00 1F 25 81 00 00 59 0C 00 1F 15 36 00 00 2E 21 00 00 00 03 00 11 72 2A 00 00 00 02 00 08 CF 46 00 00 13 8B 03 83
12:24:46.292,COM15,RX,Read Holding Regs  unit=1  addr=25012  qty=1  [CRC FAIL calc=A59D recv=A5B9]
12:24:46.292,COM15,   ,RAW: 01 03 61 B4 00 01 DB D0 01 03 02 00 7C B9 A5
12:24:47.328,COM15,RX,Read Holding Regs  unit=1  addr=16  qty=18  [CRC OK]
12:24:47.328,COM15,   ,RAW: 01 03 00 10 00 12 C4 02
12:24:47.486,COM15,RX,Read Holding Regs  unit=1  addr=9216  qty=84  [CRC FAIL calc=02A4 recv=19A4]
12:24:47.486,COM15,   ,RAW: 01 03 24 00 00 54 D6 00 00 54 E4 00 00 53 53 00 02 E7 43 00 02 E9 E0 00 02 E9 87 00 05 08 45 00 05 0C E1 00 05 09 7D 45 F3 01 03 00 66 00 10 A4 19
12:24:47.646,COM15,RX,Read Holding Regs  unit=1  addr=8192  qty=4815  [CRC FAIL calc=E9A5 recv=F2A5]
12:24:47.646,COM15,   ,RAW: 01 03 20 00 12 CF FF 00 00 00 00 00 12 D4 8E 00 00 00 00 00 00 00 00 00 00 00 00 00 00 00 00 00 00 D1 A8 89 E2 01 03 00 A6 00 24 A5 F2
12:24:47.885,COM15,RX,Read Holding Regs  unit=1  addr=18441  qty=47531  [CRC FAIL calc=CC17 recv=009C]
12:24:47.885,COM15,   ,RAW: 01 03 48 09 B9 AB 65 00 08 D4 AF 09 FB A8 78 00 12 4A BE 00 0B 3B 78 00 97 81 64 05 C7 60 9C 00
12:24:47.965,COM15,RX,FC37  unit=3  [CRC FAIL calc=FCA8 recv=A5B9]
12:24:47.965,COM15,   ,RAW: 03 25 A5 00 00 03 E7 00 1F 25 81 00 00 59 0C 00 1F 15 36 00 00 2E 21 00 00 00 03 00 11 72 2A 00 00 00 02 00 08 CF 46 00 00 13 8B F8 4A 01 03 61 B4 00 01 DB D0 01 03 02 00 7C B9 A5
12:24:49.003,COM15,RX,Read Holding Regs  unit=1  addr=16  qty=18  [CRC OK]
12:24:49.003,COM15,   ,RAW: 01 03 00 10 00 12 C4 02
12:24:49.146,COM15,RX,Read Holding Regs  unit=1  addr=9216  qty=84  [CRC OK]
12:24:49.146,COM15,   ,RAW: 01 03 24 00 00 54 12 00 00 54 1E 00 00 53 6C 00 02 E4 78 00 02 E7 F1 00 02 E8 DB 00 05 03 21 00 05 0B 73 00 05 06 B6 8F 29
12:24:49.178,COM15,RX,Read Holding Regs  unit=1  addr=102  qty=16  [CRC OK]
12:24:49.178,COM15,   ,RAW: 01 03 00 66 00 10 A4 19
12:24:49.305,COM15,RX,Read Holding Regs  unit=1  addr=8192  qty=4784  [CRC OK]
12:24:49.305,COM15,   ,RAW: 01 03 20 00 12 B0 AC 00 00 00 00 00 12 B1 B6 00 00 00 00 00 00 00 00 00 00 00 00 00 00 00 00 00 00 63 AE 2C 74
12:24:49.337,COM15,RX,Read Holding Regs  unit=1  addr=166  qty=36  [CRC OK]
12:24:49.337,COM15,   ,RAW: 01 03 00 A6 00 24 A5 F2
12:24:49.561,COM15,RX,Read Holding Regs  unit=1  addr=18441  qty=47532  [CRC FAIL calc=D696 recv=00A3]
12:24:49.561,COM15,   ,RAW: 01 03 48 09 B9 AC B9 00 08 D4 AF 09 FB A9 CC 00 12 4A BE 00 0B 3B 78 00 97 81 64 05 C7 60 A3 00
12:24:49.609,COM15,RX,FC37  unit=3  [CRC FAIL calc=CA41 recv=3FF8]
12:24:49.609,COM15,   ,RAW: 03 25 A5 00 00 03 E8 00 1F 25 81 00 00 59 0C 00 1F 15 36 00 00 2E 21 00 00 00 03 00 11 72 2A 00 00 00 02 00 08 CF 46 00 00 13 8B F8 3F
12:24:49.656,COM15,RX,Read Holding Regs  unit=1  addr=25012  qty=1  [CRC FAIL calc=A59D recv=A5B9]
12:24:49.656,COM15,   ,RAW: 01 03 61 B4 00 01 DB D0 01 03 02 00 7C B9 A5
12:24:50.677,COM15,RX,Read Holding Regs  unit=1  addr=16  qty=18  [CRC OK]
12:24:50.677,COM15,   ,RAW: 01 03 00 10 00 12 C4 02
12:24:50.854,COM15,RX,Read Holding Regs  unit=1  addr=9216  qty=84  [CRC FAIL calc=02A4 recv=19A4]
12:24:50.854,COM15,   ,RAW: 01 03 24 00 00 54 9E 00 00 54 BB 00 00 53 D7 00 02 E8 99 00 02 E9 AC 00 02 E9 21 00 05 09 BE 00 05 0B 6D 00 05 0A BC C3 7D 01 03 00 66 00 10 A4 19
12:24:50.981,COM15,RX,Read Holding Regs  unit=1  addr=8192  qty=4821  [CRC OK]
12:24:50.981,COM15,   ,RAW: 01 03 20 00 12 D5 AA 00 00 00 00 00 12 D7 78 00 00 00 00 00 00 00 00 00 00 00 00 00 00 00 00 00 00 83 E8 94 34
12:24:51.013,COM15,RX,Read Holding Regs  unit=1  addr=166  qty=36  [CRC OK]
12:24:51.013,COM15,   ,RAW: 01 03 00 A6 00 24 A5 F2
12:24:51.237,COM15,RX,Read Holding Regs  unit=1  addr=18441  qty=47535  [CRC FAIL calc=DC45 recv=00B2]
12:24:51.237,COM15,   ,RAW: 01 03 48 09 B9 AF 65 00 08 D4 AF 09 FB AC 77 00 12 4A BE 00 0B 3B 78 00 97 81 64 05 C7 60 B2 00
12:24:51.332,COM15,RX,FC37  unit=3  [CRC FAIL calc=B9CC recv=A5B9]
12:24:51.333,COM15,   ,RAW: 03 25 A5 00 00 03 E8 00 1F 25 81 00 00 59 0C 00 1F 15 36 00 00 2E 21 00 00 00 03 00 11 72 2A 00 00 00 02 00 08 CF 46 00 00 13 8B C6 5F 01 03 61 B4 00 01 DB D0 01 03 02 00 7C B9 A5
12:24:52.369,COM15,RX,Read Holding Regs  unit=1  addr=16  qty=18  [CRC OK]
12:24:52.369,COM15,   ,RAW: 01 03 00 10 00 12 C4 02
12:24:52.527,COM15,RX,Read Holding Regs  unit=1  addr=9216  qty=85  [CRC FAIL calc=02A4 recv=19A4]
12:24:52.527,COM15,   ,RAW: 01 03 24 00 00 55 07 00 00 55 13 00 00 54 49 00 02 E8 94 00 02 E9 BD 00 02 E8 A5 00 05 0A 14 00 05 0A FB 00 05 0A 16 80 2F 01 03 00 66 00 10 A4 19
12:24:52.685,COM15,RX,Read Holding Regs  unit=1  addr=8192  qty=4838  [CRC FAIL calc=E9A5 recv=F2A5]
12:24:52.685,COM15,   ,RAW: 01 03 20 00 12 E6 66 00 00 00 00 00 12 EB 41 00 00 00 00 00 00 00 00 00 00 00 00 00 00 00 00 00 00 D5 77 9F BD 01 03 00 A6 00 24 A5 F2
12:24:52.924,COM15,RX,Read Holding Regs  unit=1  addr=18441  qty=47538  [CRC FAIL calc=31B1 recv=00D1]
12:24:52.924,COM15,   ,RAW: 01 03 48 09 B9 B2 16 00 08 D4 AF 09 FB AF 28 00 12 4A BE 00 0B 3B 78 00 97 81 64 05 C7 60 D1 00
12:24:53.004,COM15,RX,FC37  unit=3  [CRC FAIL calc=D5E6 recv=A5B9]
12:24:53.004,COM15,   ,RAW: 03 25 A5 00 00 03 E7 00 1F 25 81 00 00 59 0C 00 1F 15 36 00 00 2E 21 00 00 00 03 00 11 72 2A 00 00 00 02 00 08 CF 46 00 00 13 8A D1 2D 01 03 61 B4 00 01 DB D0 01 03 02 00 7C B9 A5
12:24:54.040,COM15,RX,Read Holding Regs  unit=1  addr=16  qty=18  [CRC OK]
12:24:54.040,COM15,   ,RAW: 01 03 00 10 00 12 C4 02
12:24:54.216,COM15,RX,Read Holding Regs  unit=1  addr=9216  qty=84  [CRC FAIL calc=02A4 recv=19A4]
12:24:54.216,COM15,   ,RAW: 01 03 24 00 00 54 EE 00 00 54 D3 00 00 53 81 00 02 E5 4B 00 02 E8 67 00 02 E9 57 00 05 04 66 00 05 0C 13 00 05 07 E1 C5 F5 01 03 00 66 00 10 A4 19
12:24:54.375,COM15,RX,Read Holding Regs  unit=1  addr=8192  qty=4815  [CRC FAIL calc=E9A5 recv=F2A5]
12:24:54.375,COM15,   ,RAW: 01 03 20 00 12 CF DC 00 00 00 00 00 12 D3 35 00 00 00 00 00 00 00 00 00 00 00 00 00 00 00 00 00 00 B3 92 46 0D 01 03 00 A6 00 24 A5 F2
12:24:54.597,COM15,RX,Read Holding Regs  unit=1  addr=18441  qty=47539  [CRC FAIL calc=E3CC recv=00DE]
12:24:54.597,COM15,   ,RAW: 01 03 48 09 B9 B3 6B 00 08 D4 AF 09 FB B0 7E 00 12 4A BE 00 0B 3B 78 00 97 81 64 05 C7 60 DE 00
12:24:54.645,COM15,RX,FC37  unit=3  [CRC FAIL calc=FA3E recv=9CA9]
12:24:54.645,COM15,   ,RAW: 03 25 A5 00 00 03 E7 00 1F 25 81 00 00 59 0C 00 1F 15 36 00 00 2E 21 00 00 00 03 00 11 72 2A 00 00 00 02 00 08 CF 46 00 00 13 8A A9 9C
12:24:54.693,COM15,RX,Read Holding Regs  unit=1  addr=25012  qty=1  [CRC FAIL calc=A59D recv=A5B9]
12:24:54.693,COM15,   ,RAW: 01 03 61 B4 00 01 DB D0 01 03 02 00 7C B9 A5
12:24:55.714,COM15,RX,Read Holding Regs  unit=1  addr=16  qty=18  [CRC OK]
12:24:55.714,COM15,   ,RAW: 01 03 00 10 00 12 C4 02
12:24:55.875,COM15,RX,Read Holding Regs  unit=1  addr=9216  qty=84  [CRC FAIL calc=02A4 recv=19A4]
12:24:55.875,COM15,   ,RAW: 01 03 24 00 00 54 35 00 00 54 8F 00 00 53 C4 00 02 E6 02 00 02 E7 FE 00 02 E8 E7 00 05 04 EC 00 05 0A AD 00 05 08 86 66 60 01 03 00 66 00 10 A4 19
12:24:56.034,COM15,RX,Read Holding Regs  unit=1  addr=8192  qty=4803  [CRC FAIL calc=E9A5 recv=F2A5]
12:24:56.035,COM15,   ,RAW: 01 03 20 00 12 C3 D5 00 00 00 00 00 12 C4 A9 00 00 00 00 00 00 00 00 00 00 00 00 00 00 00 00 00 00 59 44 27 82 01 03 00 A6 00 24 A5 F2
12:24:56.273,COM15,RX,Read Holding Regs  unit=1  addr=18441  qty=47542  [CRC FAIL calc=B3AD recv=00EC]
12:24:56.273,COM15,   ,RAW: 01 03 48 09 B9 B6 16 00 08 D4 AF 09 FB B3 2A 00 12 4A BE 00 0B 3B 78 00 97 81 64 05 C7 60 EC 00
12:24:56.337,COM15,RX,FC37  unit=3  [CRC FAIL calc=ED6F recv=D0DB]
12:24:56.337,COM15,   ,RAW: 03 25 A5 00 00 03 E8 00 1F 25 81 00 00 59 0C 00 1F 15 36 00 00 2E 21 00 00 00 03 00 11 72 2A 00 00 00 02 00 08 CF 46 00 00 13 8A A4 DC 01 03 61 B4 00 01 DB D0
12:24:56.369,COM15,RX,Read Holding Regs  unit=1  [CRC OK]
12:24:56.369,COM15,   ,RAW: 01 03 02 00 7C B9 A5
12:24:57.391,COM15,RX,Read Holding Regs  unit=1  addr=16  qty=18  [CRC OK]
12:24:57.391,COM15,   ,RAW: 01 03 00 10 00 12 C4 02
12:24:57.564,COM15,RX,Read Holding Regs  unit=1  addr=9216  qty=84  [CRC FAIL calc=02A4 recv=19A4]
12:24:57.564,COM15,   ,RAW: 01 03 24 00 00 54 8A 00 00 54 B2 00 00 53 D8 00 02 E8 C1 00 02 E9 A9 00 02 E9 87 00 05 09 A6 00 05 0B CA 00 05 0B 69 63 AC 01 03 00 66 00 10 A4 19
12:24:57.724,COM15,RX,Read Holding Regs  unit=1  addr=8192  qty=4821  [CRC FAIL calc=E9A5 recv=F2A5]
12:24:57.724,COM15,   ,RAW: 01 03 20 00 12 D5 D3 00 00 00 00 00 12 D7 46 00 00 00 00 00 00 00 00 00 00 00 00 00 00 00 00 00 00 C9 5F F9 A4 01 03 00 A6 00 24 A5 F2
12:24:57.948,COM15,RX,Read Holding Regs  unit=1  addr=18441  qty=47544  [CRC FAIL calc=18E3 recv=0003]
12:24:57.948,COM15,   ,RAW: 01 03 48 09 B9 B8 C5 00 08 D4 AF 09 FB B5 DA 00 12 4A BE 00 0B 3B 78 00 97 81 64 05 C7 61 03 00
12:24:57.996,COM15,RX,FC37  unit=3  [CRC FAIL calc=FA3E recv=C2C7]
12:24:57.996,COM15,   ,RAW: 03 25 A5 00 00 03 E7 00 1F 25 81 00 00 59 0C 00 1F 15 36 00 00 2E 21 00 00 00 03 00 11 72 2A 00 00 00 02 00 08 CF 46 00 00 13 8A C7 C2
12:24:58.043,COM15,RX,Read Holding Regs  unit=1  addr=25012  qty=1  [CRC FAIL calc=A59D recv=A5B9]
12:24:58.043,COM15,   ,RAW: 01 03 61 B4 00 01 DB D0 01 03 02 00 7C B9 A5
12:24:59.065,COM15,RX,Read Holding Regs  unit=1  addr=16  qty=18  [CRC OK]
12:24:59.065,COM15,   ,RAW: 01 03 00 10 00 12 C4 02
12:24:59.240,COM15,RX,Read Holding Regs  unit=1  addr=9216  qty=85  [CRC FAIL calc=02A4 recv=19A4]
12:24:59.240,COM15,   ,RAW: 01 03 24 00 00 55 51 00 00 55 55 00 00 53 FA 00 02 E8 7E 00 02 EA 94 00 02 E9 84 00 05 0A 80 00 05 0D 00 00 05 0A 76 8D D3 01 03 00 66 00 10 A4 19
12:24:59.400,COM15,RX,Read Holding Regs  unit=1  addr=8192  qty=4847  [CRC FAIL calc=E9A5 recv=F2A5]
12:24:59.400,COM15,   ,RAW: 01 03 20 00 12 EF 9F 00 00 00 00 00 12 F4 B9 00 00 00 00 00 00 00 00 00 00 00 00 00 00 00 00 00 00 DE 6D 15 57 01 03 00 A6 00 24 A5 F2
12:24:59.638,COM15,RX,Read Holding Regs  unit=1  addr=18441  qty=47546  [CRC FAIL calc=3D3C recv=0013]
12:24:59.638,COM15,   ,RAW: 01 03 48 09 B9 BA 1E 00 08 D4 AF 09 FB B7 32 00 12 4A BE 00 0B 3B 78 00 97 81 64 05 C7 61 13 00
12:24:59.718,COM15,RX,FC37  unit=3  [CRC FAIL calc=CE7E recv=A5B9]
12:24:59.718,COM15,   ,RAW: 03 25 A5 00 00 03 E7 00 1F 25 81 00 00 59 0C 00 1F 15 36 00 00 2E 21 00 00 00 03 00 11 72 2A 00 00 00 02 00 08 CF 46 00 00 13 8A D2 F7 01 03 61 B4 00 01 DB D0 01 03 02 00 7C B9 A5
12:25:00.755,COM15,RX,Read Holding Regs  unit=1  addr=16  qty=18  [CRC OK]
12:25:00.755,COM15,   ,RAW: 01 03 00 10 00 12 C4 02
12:25:00.898,COM15,RX,Read Holding Regs  unit=1  addr=9216  qty=84  [CRC OK]
12:25:00.898,COM15,   ,RAW: 01 03 24 00 00 54 81 00 00 54 77 00 00 53 AA 00 02 E5 00 00 02 E8 73 00 02 E9 BD 00 05 03 D5 00 05 0C BE 00 05 08 0B BB CF
12:25:00.930,COM15,RX,Read Holding Regs  unit=1  addr=102  qty=16  [CRC OK]
12:25:00.930,COM15,   ,RAW: 01 03 00 66 00 10 A4 19
12:25:01.073,COM15,RX,Read Holding Regs  unit=1  addr=8192  qty=4807  [CRC FAIL calc=E9A5 recv=F2A5]
12:25:01.073,COM15,   ,RAW: 01 03 20 00 12 C7 94 00 00 00 00 00 12 C9 44 00 00 00 00 00 00 00 00 00 00 00 00 00 00 00 00 00 00 7F 77 8C 6C 01 03 00 A6 00 24 A5 F2
12:25:01.312,COM15,RX,Read Holding Regs  unit=1  addr=18441  qty=47548  [CRC FAIL calc=D8CD recv=002A]
12:25:01.312,COM15,   ,RAW: 01 03 48 09 B9 BC CB 00 08 D4 AF 09 FB B9 E0 00 12 4A BE 00 0B 3B 78 00 97 81 64 05 C7 61 2A 00
12:25:01.375,COM15,RX,FC37  unit=3  [CRC FAIL calc=FBF9 recv=D0DB]
12:25:01.375,COM15,   ,RAW: 03 25 A5 00 00 03 E8 00 1F 25 81 00 00 59 0C 00 1F 15 36 00 00 2E 21 00 00 00 03 00 11 72 2A 00 00 00 02 00 08 CF 46 00 00 13 89 5D 50 01 03 61 B4 00 01 DB D0
12:25:01.407,COM15,RX,Read Holding Regs  unit=1  [CRC OK]
12:25:01.407,COM15,   ,RAW: 01 03 02 00 7C B9 A5
12:25:02.427,COM15,RX,Read Holding Regs  unit=1  addr=16  qty=18  [CRC OK]
12:25:02.427,COM15,   ,RAW: 01 03 00 10 00 12 C4 02
12:25:02.588,COM15,RX,Read Holding Regs  unit=1  addr=9216  qty=84  [CRC FAIL calc=02A4 recv=19A4]
12:25:02.588,COM15,   ,RAW: 01 03 24 00 00 54 37 00 00 54 4E 00 00 53 CD 00 02 E5 EF 00 02 E9 02 00 02 E9 7D 00 05 09 DB 00 05 0C 26 00 05 0B 0F 64 41 01 03 00 66 00 10 A4 19
12:25:02.748,COM15,RX,Read Holding Regs  unit=1  addr=8192  qty=4824  [CRC FAIL calc=E9A5 recv=F2A5]
12:25:02.748,COM15,   ,RAW: 01 03 20 00 12 D8 5D 00 00 00 00 00 12 D9 99 00 00 00 00 00 00 00 00 00 00 00 00 00 00 00 00 00 00 6D 15 D9 C7 01 03 00 A6 00 24 A5 F2
12:25:02.988,COM15,RX,Read Holding Regs  unit=1  addr=18441  qty=47551  [CRC FAIL calc=506B recv=0038]
12:25:02.988,COM15,   ,RAW: 01 03 48 09 B9 BF 77 00 08 D4 AF 09 FB BC 8D 00 12 4A BE 00 0B 3B 78 00 97 81 64 05 C7 61 38 00
12:25:03.067,COM15,RX,FC37  unit=3  [CRC FAIL calc=EE8A recv=A5B9]
12:25:03.067,COM15,   ,RAW: 03 25 A5 00 00 03 E8 00 1F 25 81 00 00 59 0C 00 1F 15 36 00 00 2E 21 00 00 00 03 00 11 72 2A 00 00 00 02 00 08 CF 46 00 00 13 89 30 EF 01 03 61 B4 00 01 DB D0 01 03 02 00 7C B9 A5
12:25:04.102,COM15,RX,Read Holding Regs  unit=1  addr=16  qty=18  [CRC OK]
12:25:04.103,COM15,   ,RAW: 01 03 00 10 00 12 C4 02
12:25:04.245,COM15,RX,Read Holding Regs  unit=1  addr=9216  qty=84  [CRC OK]
12:25:04.245,COM15,   ,RAW: 01 03 24 00 00 54 FF 00 00 55 0B 00 00 54 5C 00 02 E9 95 00 02 EA 4B 00 02 E9 2B 00 05 0B 8E 00 05 0B A4 00 05 0B 8F 5C 7C
12:25:04.277,COM15,RX,Read Holding Regs  unit=1  addr=102  qty=16  [CRC OK]
12:25:04.277,COM15,   ,RAW: 01 03 00 66 00 10 A4 19
12:25:04.421,COM15,RX,Read Holding Regs  unit=1  addr=8192  qty=4845  [CRC FAIL calc=E9A5 recv=F2A5]
12:25:04.421,COM15,   ,RAW: 01 03 20 00 12 ED 49 00 00 00 00 00 12 F0 E4 00 00 00 00 00 00 00 00 00 00 00 00 00 00 00 00 00 00 BA F1 78 6D 01 03 00 A6 00 24 A5 F2
12:25:04.661,COM15,RX,Read Holding Regs  unit=1  addr=18441  qty=47552  [CRC FAIL calc=DA68 recv=0045]
12:25:04.661,COM15,   ,RAW: 01 03 48 09 B9 C0 CF 00 08 D4 AF 09 FB BD E5 00 12 4A BE 00 0B 3B 78 00 97 81 64 05 C7 61 45 00
12:25:04.709,COM15,RX,FC37  unit=3  [CRC FAIL calc=FA3E recv=0B1C]
12:25:04.709,COM15,   ,RAW: 03 25 A5 00 00 03 E7 00 1F 25 81 00 00 59 0C 00 1F 15 36 00 00 2E 21 00 00 00 03 00 11 72 2A 00 00 00 02 00 08 CF 46 00 00 13 8A 1C 0B
12:25:04.757,COM15,RX,Read Holding Regs  unit=1  addr=25012  qty=1  [CRC FAIL calc=A59D recv=A5B9]
12:25:04.757,COM15,   ,RAW: 01 03 61 B4 00 01 DB D0 01 03 02 00 7C B9 A5
12:25:05.779,COM15,RX,Read Holding Regs  unit=1  addr=16  qty=18  [CRC OK]
12:25:05.779,COM15,   ,RAW: 01 03 00 10 00 12 C4 02
12:25:05.955,COM15,RX,Read Holding Regs  unit=1  addr=9216  qty=85  [CRC FAIL calc=02A4 recv=19A4]
12:25:05.955,COM15,   ,RAW: 01 03 24 00 00 55 35 00 00 54 FF 00 00 53 FF 00 02 E7 68 00 02 E9 D2 00 02 EA AC 00 05 07 B0 00 05 0E 0C 00 05 0B 09 23 49 01 03 00 66 00 10 A4 19
12:25:06.082,COM15,RX,Read Holding Regs  unit=1  addr=8192  qty=4842  [CRC OK]
12:25:06.082,COM15,   ,RAW: 01 03 20 00 12 EA 90 00 00 00 00 00 12 EE B8 00 00 00 00 00 00 00 00 00 00 00 00 00 00 00 00 00 00 C8 B0 B6 96
12:25:06.113,COM15,RX,Read Holding Regs  unit=1  addr=166  qty=36  [CRC OK]
12:25:06.113,COM15,   ,RAW: 01 03 00 A6 00 24 A5 F2
12:25:06.337,COM15,RX,Read Holding Regs  unit=1  addr=18441  qty=47555  [CRC FAIL calc=DE9C recv=0064]
12:25:06.337,COM15,   ,RAW: 01 03 48 09 B9 C3 81 00 08 D4 AF 09 FB C0 97 00 12 4A BE 00 0B 3B 78 00 97 81 64 05 C7 61 64 00
12:25:06.384,COM15,RX,FC37  unit=3  [CRC FAIL calc=FA3E recv=FB40]
12:25:06.384,COM15,   ,RAW: 03 25 A5 00 00 03 E7 00 1F 25 81 00 00 59 0C 00 1F 15 36 00 00 2E 21 00 00 00 03 00 11 72 2A 00 00 00 02 00 08 CF 46 00 00 13 8A 40 FB
12:25:06.431,COM15,RX,Read Holding Regs  unit=1  addr=25012  qty=1  [CRC FAIL calc=A59D recv=A5B9]
12:25:06.431,COM15,   ,RAW: 01 03 61 B4 00 01 DB D0 01 03 02 00 7C B9 A5
12:25:07.449,COM15,RX,Read Holding Regs  unit=1  addr=16  qty=18  [CRC OK]
12:25:07.449,COM15,   ,RAW: 01 03 00 10 00 12 C4 02
12:25:07.624,COM15,RX,Read Holding Regs  unit=1  addr=9216  qty=84  [CRC FAIL calc=02A4 recv=19A4]
12:25:07.624,COM15,   ,RAW: 01 03 24 00 00 54 6E 00 00 54 5E 00 00 53 DE 00 02 E5 37 00 02 E8 A0 00 02 E8 FD 00 05 04 B3 00 05 0B F3 00 05 07 58 28 55 01 03 00 66 00 10 A4 19
12:25:07.784,COM15,RX,Read Holding Regs  unit=1  addr=8192  qty=4807  [CRC FAIL calc=E9A5 recv=F2A5]
12:25:07.784,COM15,   ,RAW: 01 03 20 00 12 C7 71 00 00 00 00 00 12 C8 51 00 00 00 00 00 00 00 00 00 00 00 00 00 00 00 00 00 00 5B D1 40 B0 01 03 00 A6 00 24 A5 F2
12:25:08.023,COM15,RX,Read Holding Regs  unit=1  addr=18441  qty=47558  [CRC FAIL calc=E8BD recv=0075]
12:25:08.023,COM15,   ,RAW: 01 03 48 09 B9 C6 2E 00 08 D4 AF 09 FB C3 43 00 12 4A BE 00 0B 3B 78 00 97 81 64 05 C7 61 75 00
12:25:08.086,COM15,RX,FC37  unit=3  [CRC FAIL calc=35AF recv=D0DB]
12:25:08.086,COM15,   ,RAW: 03 25 A5 00 00 03 E8 00 1F 25 81 00 00 59 0C 00 1F 15 36 00 00 2E 21 00 00 00 03 00 11 72 2A 00 00 00 02 00 08 CF 46 00 00 13 8A 7B 90 01 03 61 B4 00 01 DB D0
12:25:08.118,COM15,RX,Read Holding Regs  unit=1  [CRC OK]
12:25:08.119,COM15,   ,RAW: 01 03 02 00 7C B9 A5
12:25:09.136,COM15,RX,Read Holding Regs  unit=1  addr=16  qty=18  [CRC OK]
12:25:09.137,COM15,   ,RAW: 01 03 00 10 00 12 C4 02
12:25:09.296,COM15,RX,Read Holding Regs  unit=1  addr=9216  qty=84  [CRC FAIL calc=02A4 recv=19A4]
12:25:09.296,COM15,   ,RAW: 01 03 24 00 00 54 A3 00 00 54 B0 00 00 53 F8 00 02 E7 CE 00 02 E9 C2 00 02 E9 2A 00 05 08 E1 00 05 0C 01 00 05 09 DD AA 32 01 03 00 66 00 10 A4 19
12:25:09.456,COM15,RX,Read Holding Regs  unit=1  addr=8192  qty=4824  [CRC FAIL calc=E9A5 recv=F2A5]
12:25:09.456,COM15,   ,RAW: 01 03 20 00 12 D8 C6 00 00 00 00 00 12 D9 DA 00 00 00 00 00 00 00 00 00 00 00 00 00 00 00 00 00 00 66 0D E3 FA 01 03 00 A6 00 24 A5 F2
12:25:09.695,COM15,RX,Read Holding Regs  unit=1  addr=18441  qty=47559  [CRC FAIL calc=C5F6 recv=007C]
12:25:09.695,COM15,   ,RAW: 01 03 48 09 B9 C7 83 00 08 D4 AF 09 FB C4 9A 00 12 4A BE 00 0B 3B 78 00 97 81 64 05 C7 61 7C 00
12:25:09.775,COM15,RX,FC37  unit=3  [CRC FAIL calc=CB79 recv=A5B9]
12:25:09.775,COM15,   ,RAW: 03 25 A5 00 00 03 E8 00 1F 25 81 00 00 59 0C 00 1F 15 36 00 00 2E 21 00 00 00 03 00 11 72 2A 00 00 00 02 00 08 CF 46 00 00 13 8A D9 75 01 03 61 B4 00 01 DB D0 01 03 02 00 7C B9 A5
12:25:10.815,COM15,RX,Read Holding Regs  unit=1  addr=16  qty=18  [CRC OK]
12:25:10.815,COM15,   ,RAW: 01 03 00 10 00 12 C4 02
12:25:10.976,COM15,RX,Read Holding Regs  unit=1  addr=9216  qty=85  [CRC FAIL calc=02A4 recv=19A4]
12:25:10.976,COM15,   ,RAW: 01 03 24 00 00 55 52 00 00 55 7C 00 00 54 73 00 02 E9 01 00 02 E9 B4 00 02 E9 61 00 05 0A 21 00 05 0B 8C 00 05 0B 6C ED 59 01 03 00 66 00 10 A4 19
12:25:11.136,COM15,RX,Read Holding Regs  unit=1  addr=8192  qty=4856  [CRC FAIL calc=E9A5 recv=F2A5]
12:25:11.136,COM15,   ,RAW: 01 03 20 00 12 F8 C6 00 00 00 00 00 12 FE 3E 00 00 00 00 00 00 00 00 00 00 00 00 00 00 00 00 00 00 E6 88 DC 8F 01 03 00 A6 00 24 A5 F2
12:25:11.375,COM15,RX,Read Holding Regs  unit=1  addr=18441  qty=47562  [CRC FAIL calc=5DAE recv=0098]
12:25:11.376,COM15,   ,RAW: 01 03 48 09 B9 CA 36 00 08 D4 AF 09 FB C7 4D 00 12 4A BE 00 0B 3B 78 00 97 81 64 05 C7 61 98 00
12:25:11.455,COM15,RX,FC37  unit=3  [CRC FAIL calc=2C61 recv=A5B9]
12:25:11.455,COM15,   ,RAW: 03 25 A5 00 00 03 E7 00 1F 25 81 00 00 59 0C 00 1F 15 36 00 00 2E 21 00 00 00 03 00 11 72 2A 00 00 00 02 00 08 CF 46 00 00 13 8A 99 E2 01 03 61 B4 00 01 DB D0 01 03 02 00 7C B9 A5
12:25:12.489,COM15,RX,Read Holding Regs  unit=1  addr=16  qty=18  [CRC OK]
12:25:12.490,COM15,   ,RAW: 01 03 00 10 00 12 C4 02
12:25:12.665,COM15,RX,Read Holding Regs  unit=1  addr=9216  qty=85  [CRC FAIL calc=02A4 recv=19A4]
12:25:12.665,COM15,   ,RAW: 01 03 24 00 00 55 01 00 00 54 C2 00 00 53 E6 00 02 E4 EE 00 02 E8 CB 00 02 E9 C0 00 05 04 2A 00 05 0D 34 00 05 07 BE ED 1F 01 03 00 66 00 10 A4 19
12:25:12.792,COM15,RX,Read Holding Regs  unit=1  addr=8192  qty=4826  [CRC OK]
12:25:12.792,COM15,   ,RAW: 01 03 20 00 12 DA 34 00 00 00 00 00 12 DC E8 00 00 00 00 00 00 00 00 00 00 00 00 00 00 00 00 00 00 A1 9A F1 5D
12:25:12.824,COM15,RX,Read Holding Regs  unit=1  addr=166  qty=36  [CRC OK]
12:25:12.824,COM15,   ,RAW: 01 03 00 A6 00 24 A5 F2
12:25:13.062,COM15,RX,Read Holding Regs  unit=1  addr=18441  qty=47564  [CRC FAIL calc=D5C4 recv=00B2]
12:25:13.062,COM15,   ,RAW: 01 03 48 09 B9 CC E7 00 08 D4 AF 09 FB C9 FE 00 12 4A BE 00 0B 3B 78 00 97 81 64 05 C7 61 B2 00
12:25:13.141,COM15,RX,FC37  unit=3  [CRC FAIL calc=8EB5 recv=A5B9]
12:25:13.141,COM15,   ,RAW: 03 25 A5 00 00 03 E7 00 1F 25 81 00 00 59 0C 00 1F 15 36 00 00 2E 21 00 00 00 03 00 11 72 2A 00 00 00 02 00 08 CF 46 00 00 13 8A 07 28 01 03 61 B4 00 01 DB D0 01 03 02 00 7C B9 A5
12:25:14.174,COM15,RX,Read Holding Regs  unit=1  addr=16  qty=18  [CRC OK]
12:25:14.174,COM15,   ,RAW: 01 03 00 10 00 12 C4 02
12:25:14.318,COM15,RX,Read Holding Regs  unit=1  addr=9216  qty=84  [CRC OK]
12:25:14.318,COM15,   ,RAW: 01 03 24 00 00 54 85 00 00 54 76 00 00 53 E7 00 02 E4 F4 00 02 E8 8E 00 02 E9 19 00 05 04 41 00 05 0C 28 00 05 07 33 7B 5D
12:25:14.350,COM15,RX,Read Holding Regs  unit=1  addr=102  qty=16  [CRC OK]
12:25:14.350,COM15,   ,RAW: 01 03 00 66 00 10 A4 19
12:25:14.493,COM15,RX,Read Holding Regs  unit=1  addr=8192  qty=4811  [CRC FAIL calc=E9A5 recv=F2A5]
12:25:14.493,COM15,   ,RAW: 01 03 20 00 12 CB 82 00 00 00 00 00 12 CC 85 00 00 00 00 00 00 00 00 00 00 00 00 00 00 00 00 00 00 62 A2 99 59 01 03 00 A6 00 24 A5 F2
12:25:14.732,COM15,RX,Read Holding Regs  unit=1  addr=18441  qty=47566  [CRC FAIL calc=61AB recv=00C0]
12:25:14.732,COM15,   ,RAW: 01 03 48 09 B9 CE 3C 00 08 D4 AF 09 FB CB 54 00 12 4A BE 00 0B 3B 78 00 97 81 64 05 C7 61 C0 00
12:25:14.795,COM15,RX,FC37  unit=3  [CRC FAIL calc=37FF recv=D0DB]
12:25:14.795,COM15,   ,RAW: 03 25 A5 00 00 03 E8 00 1F 25 81 00 00 59 0C 00 1F 15 36 00 00 2E 21 00 00 00 03 00 11 72 2A 00 00 00 02 00 08 CF 46 00 00 13 8A 3E 44 01 03 61 B4 00 01 DB D0
12:25:14.827,COM15,RX,Read Holding Regs  unit=1  [CRC OK]
12:25:14.827,COM15,   ,RAW: 01 03 02 00 7C B9 A5
12:25:15.847,COM15,RX,Read Holding Regs  unit=1  addr=16  qty=18  [CRC OK]
12:25:15.847,COM15,   ,RAW: 01 03 00 10 00 12 C4 02
12:25:16.007,COM15,RX,Read Holding Regs  unit=1  addr=9216  qty=85  [CRC FAIL calc=02A4 recv=19A4]
12:25:16.007,COM15,   ,RAW: 01 03 24 00 00 55 0C 00 00 54 EA 00 00 54 3D 00 02 E8 D8 00 02 EA 31 00 02 E9 1D 00 05 0A A0 00 05 0B E2 00 05 0A B2 05 B8 01 03 00 66 00 10 A4 19
12:25:16.166,COM15,RX,Read Holding Regs  unit=1  addr=8192  qty=4842  [CRC FAIL calc=E9A5 recv=F2A5]
12:25:16.166,COM15,   ,RAW: 01 03 20 00 12 EA 23 00 00 00 00 00 12 EC 4C 00 00 00 00 00 00 00 00 00 00 00 00 00 00 00 00 00 00 90 A6 4E FC 01 03 00 A6 00 24 A5 F2
12:25:16.406,COM15,RX,Read Holding Regs  unit=1  addr=18441  qty=47568  [CRC FAIL calc=F0C8 recv=00CA]
12:25:16.406,COM15,   ,RAW: 01 03 48 09 B9 D0 EB 00 08 D4 AF 09 FB CE 03 00 12 4A BE 00 0B 3B 78 00 97 81 64 05 C7 61 CA 00
12:25:16.486,COM15,RX,FC37  unit=3  [CRC FAIL calc=50CA recv=A5B9]
12:25:16.486,COM15,   ,RAW: 03 25 A5 00 00 03 E8 00 1F 25 81 00 00 59 0C 00 1F 15 36 00 00 2E 21 00 00 00 03 00 11 72 2A 00 00 00 02 00 08 CF 46 00 00 13 8A 55 4B 01 03 61 B4 00 01 DB D0 01 03 02 00 7C B9 A5
12:25:17.521,COM15,RX,Read Holding Regs  unit=1  addr=16  qty=18  [CRC OK]
12:25:17.521,COM15,   ,RAW: 01 03 00 10 00 12 C4 02
12:25:17.666,COM15,RX,Read Holding Regs  unit=1  addr=9216  qty=85  [CRC OK]
12:25:17.666,COM15,   ,RAW: 01 03 24 00 00 55 93 00 00 55 62 00 00 54 57 00 02 E7 E3 00 02 EA 41 00 02 EA 00 00 05 09 1F 00 05 0D 84 00 05 0A 8B 2B FA
12:25:17.697,COM15,RX,Read Holding Regs  unit=1  addr=102  qty=16  [CRC OK]
12:25:17.697,COM15,   ,RAW: 01 03 00 66 00 10 A4 19
12:25:17.841,COM15,RX,Read Holding Regs  unit=1  addr=8192  qty=4861  [CRC FAIL calc=E9A5 recv=F2A5]
12:25:17.841,COM15,   ,RAW: 01 03 20 00 12 FD A8 00 00 00 00 00 13 02 6B 00 00 00 00 00 00 00 00 00 00 00 00 00 00 00 00 00 00 D7 43 F9 18 01 03 00 A6 00 24 A5 F2
12:25:18.080,COM15,RX,Read Holding Regs  unit=1  addr=18441  qty=47571  [CRC FAIL calc=0360 recv=00EA]
12:25:18.080,COM15,   ,RAW: 01 03 48 09 B9 D3 9E 00 08 D4 AF 09 FB D0 B7 00 12 4A BE 00 0B 3B 78 00 97 81 64 05 C7 61 EA 00
12:25:18.144,COM15,RX,FC37  unit=3  [CRC FAIL calc=AA24 recv=D0DB]
12:25:18.144,COM15,   ,RAW: 03 25 A5 00 00 03 E7 00 1F 25 81 00 00 59 0C 00 1F 15 36 00 00 2E 21 00 00 00 03 00 11 72 2A 00 00 00 02 00 08 CF 46 00 00 13 8A 72 B1 01 03 61 B4 00 01 DB D0
12:25:18.176,COM15,RX,Read Holding Regs  unit=1  [CRC OK]
12:25:18.176,COM15,   ,RAW: 01 03 02 00 7C B9 A5
12:25:19.195,COM15,RX,Read Holding Regs  unit=1  addr=16  qty=18  [CRC OK]
12:25:19.195,COM15,   ,RAW: 01 03 00 10 00 12 C4 02
12:25:19.354,COM15,RX,Read Holding Regs  unit=1  addr=9216  qty=85  [CRC FAIL calc=02A4 recv=19A4]
12:25:19.354,COM15,   ,RAW: 01 03 24 00 00 55 17 00 00 54 F6 00 00 54 11 00 02 E5 46 00 02 E9 17 00 02 E9 D8 00 05 04 DB 00 05 0D 77 00 05 08 0C C6 04 01 03 00 66 00 10 A4 19
12:25:19.513,COM15,RX,Read Holding Regs  unit=1  addr=8192  qty=4835  [CRC FAIL calc=E9A5 recv=F2A5]
12:25:19.513,COM15,   ,RAW: 01 03 20 00 12 E3 9F 00 00 00 00 00 12 E6 E7 00 00 00 00 00 00 00 00 00 00 00 00 00 00 00 00 00 00 B2 33 B1 00 01 03 00 A6 00 24 A5 F2
12:25:19.752,COM15,RX,Read Holding Regs  unit=1  addr=18441  qty=47572  [CRC FAIL calc=36AA recv=00FE]
12:25:19.752,COM15,   ,RAW: 01 03 48 09 B9 D4 F6 00 08 D4 AF 09 FB D3 65 00 12 4A BE 00 0B 3B 78 00 97 81 64 05 C7 61 FE 00
12:25:19.832,COM15,RX,FC37  unit=3  [CRC FAIL calc=236D recv=A5B9]
12:25:19.832,COM15,   ,RAW: 03 25 A5 00 00 03 E8 00 1F 25 81 00 00 59 0C 00 1F 15 36 00 00 2E 21 00 00 00 03 00 11 72 2A 00 00 00 02 00 08 CF 46 00 00 13 8A 49 F1 01 03 61 B4 00 01 DB D0 01 03 02 00 7C B9 A5
12:25:20.866,COM15,RX,Read Holding Regs  unit=1  addr=16  qty=18  [CRC OK]
12:25:20.866,COM15,   ,RAW: 01 03 00 10 00 12 C4 02
12:25:21.009,COM15,RX,Read Holding Regs  unit=1  addr=9216  qty=84  [CRC OK]
12:25:21.009,COM15,   ,RAW: 01 03 24 00 00 54 B0 00 00 54 97 00 00 54 14 00 02 E6 C9 00 02 E9 7D 00 02 E9 4F 00 05 07 4F 00 05 0C 6E 00 05 09 05 E7 42
12:25:21.042,COM15,RX,Read Holding Regs  unit=1  addr=102  qty=16  [CRC OK]
12:25:21.042,COM15,   ,RAW: 01 03 00 66 00 10 A4 19
12:25:21.184,COM15,RX,Read Holding Regs  unit=1  addr=8192  qty=4824  [CRC FAIL calc=E9A5 recv=F2A5]
12:25:21.185,COM15,   ,RAW: 01 03 20 00 12 D8 DD 00 00 00 00 00 12 D9 C8 00 00 00 00 00 00 00 00 00 00 00 00 00 00 00 00 00 00 5E 38 41 4E 01 03 00 A6 00 24 A5 F2
12:25:21.424,COM15,RX,Read Holding Regs  unit=1  addr=18441  qty=47575  [CRC FAIL calc=AAE6 recv=0005]
12:25:21.424,COM15,   ,RAW: 01 03 48 09 B9 D7 A5 00 08 D4 AF 09 FB D4 BD 00 12 4A BE 00 0B 3B 78 00 97 81 64 05 C7 62 05 00
12:25:21.504,COM15,RX,FC37  unit=3  [CRC FAIL calc=253D recv=A5B9]
12:25:21.504,COM15,   ,RAW: 03 25 A5 00 00 03 E8 00 1F 25 81 00 00 59 0C 00 1F 15 36 00 00 2E 21 00 00 00 03 00 11 72 2A 00 00 00 02 00 08 CF 46 00 00 13 8A 8C A4 01 03 61 B4 00 01 DB D0 01 03 02 00 7C B9 A5
12:25:22.540,COM15,RX,Read Holding Regs  unit=1  addr=16  qty=18  [CRC OK]
12:25:22.540,COM15,   ,RAW: 01 03 00 10 00 12 C4 02
12:25:22.716,COM15,RX,Read Holding Regs  unit=1  addr=9216  qty=85  [CRC FAIL calc=02A4 recv=19A4]
12:25:22.716,COM15,   ,RAW: 01 03 24 00 00 55 81 00 00 55 97 00 00 54 6E 00 02 E9 59 00 02 EA B9 00 02 E9 24 00 05 0B D3 00 05 0C 3C 00 05 0A FC 69 2A 01 03 00 66 00 10 A4 19
12:25:22.842,COM15,RX,Read Holding Regs  unit=1  addr=8192  qty=4864  [CRC OK]
12:25:22.843,COM15,   ,RAW: 01 03 20 00 13 00 F5 00 00 00 00 00 13 05 D8 00 00 00 00 00 00 00 00 00 00 00 00 00 00 00 00 00 00 DA 16 7F AD
12:25:22.874,COM15,RX,Read Holding Regs  unit=1  addr=166  qty=36  [CRC OK]
12:25:22.874,COM15,   ,RAW: 01 03 00 A6 00 24 A5 F2
12:25:23.098,COM15,RX,Read Holding Regs  unit=1  addr=18441  qty=47578  [CRC FAIL calc=31CC recv=001E]
12:25:23.098,COM15,   ,RAW: 01 03 48 09 B9 DA 56 00 08 D4 AF 09 FB D7 70 00 12 4A BE 00 0B 3B 78 00 97 81 64 05 C7 62 1E 00
12:25:23.146,COM15,RX,FC37  unit=3  [CRC FAIL calc=FA3E recv=DF37]
12:25:23.146,COM15,   ,RAW: 03 25 A5 00 00 03 E7 00 1F 25 81 00 00 59 0C 00 1F 15 36 00 00 2E 21 00 00 00 03 00 11 72 2A 00 00 00 02 00 08 CF 46 00 00 13 8A 37 DF
12:25:23.194,COM15,RX,Read Holding Regs  unit=1  addr=25012  qty=1  [CRC FAIL calc=A59D recv=A5B9]
12:25:23.194,COM15,   ,RAW: 01 03 61 B4 00 01 DB D0 01 03 02 00 7C B9 A5
12:25:24.215,COM15,RX,Read Holding Regs  unit=1  addr=16  qty=18  [CRC OK]
12:25:24.216,COM15,   ,RAW: 01 03 00 10 00 12 C4 02
12:25:24.391,COM15,RX,Read Holding Regs  unit=1  addr=9216  qty=85  [CRC FAIL calc=02A4 recv=19A4]
12:25:24.391,COM15,   ,RAW: 01 03 24 00 00 55 A2 00 00 55 75 00 00 54 0E 00 02 E8 03 00 02 EA 64 00 02 E9 A0 00 05 09 AB 00 05 0D 29 00 05 0A 29 51 AA 01 03 00 66 00 10 A4 19
12:25:24.550,COM15,RX,Read Holding Regs  unit=1  addr=8192  qty=4857  [CRC FAIL calc=E9A5 recv=F2A5]
12:25:24.550,COM15,   ,RAW: 01 03 20 00 12 F9 D6 00 00 00 00 00 12 FE A2 00 00 00 00 00 00 00 00 00 00 00 00 00 00 00 00 00 00 D7 F8 88 22 01 03 00 A6 00 24 A5 F2
12:25:24.788,COM15,RX,Read Holding Regs  unit=1  addr=18441  qty=47581  [CRC FAIL calc=B231 recv=0039]
12:25:24.789,COM15,   ,RAW: 01 03 48 09 B9 DD 06 00 08 D4 AF 09 FB DA 20 00 12 4A BE 00 0B 3B 78 00 97 81 64 05 C7 62 39 00
12:25:24.868,COM15,RX,FC37  unit=3  [CRC FAIL calc=DE63 recv=A5B9]
12:25:24.868,COM15,   ,RAW: 03 25 A5 00 00 03 E7 00 1F 25 81 00 00 59 0C 00 1F 15 36 00 00 2E 21 00 00 00 03 00 11 72 2A 00 00 00 02 00 08 CF 46 00 00 13 8A B5 CD 01 03 61 B4 00 01 DB D0 01 03 02 00 7C B9 A5
12:25:25.904,COM15,RX,Read Holding Regs  unit=1  addr=16  qty=18  [CRC OK]
12:25:25.904,COM15,   ,RAW: 01 03 00 10 00 12 C4 02
12:25:26.064,COM15,RX,Read Holding Regs  unit=1  addr=9216  qty=85  [CRC FAIL calc=02A4 recv=19A4]
12:25:26.064,COM15,   ,RAW: 01 03 24 00 00 55 18 00 00 54 B0 00 00 53 EE 00 02 E4 12 00 02 E7 EB 00 02 E8 AA 00 05 02 BF 00 05 0B 68 00 05 06 0F F3 84 01 03 00 66 00 10 A4 19
12:25:26.224,COM15,RX,Read Holding Regs  unit=1  addr=8192  qty=4822  [CRC FAIL calc=E9A5 recv=F2A5]
12:25:26.224,COM15,   ,RAW: 01 03 20 00 12 D6 3E 00 00 00 00 00 12 D7 97 00 00 00 00 00 00 00 00 00 00 00 00 00 00 00 00 00 00 71 FC DB C1 01 03 00 A6 00 24 A5 F2
12:25:26.461,COM15,RX,Read Holding Regs  unit=1  addr=18441  qty=47582  [CRC FAIL calc=C458 recv=0041]
12:25:26.461,COM15,   ,RAW: 01 03 48 09 B9 DE 5D 00 08 D4 AF 09 FB DB 78 00 12 4A BE 00 0B 3B 78 00 97 81 64 05 C7 62 41 00
12:25:26.557,COM15,RX,FC37  unit=3  [CRC FAIL calc=8E97 recv=A5B9]
12:25:26.557,COM15,   ,RAW: 03 25 A5 00 00 03 E8 00 1F 25 81 00 00 59 0C 00 1F 15 36 00 00 2E 21 00 00 00 03 00 11 72 2A 00 00 00 02 00 08 CF 46 00 00 13 8A 56 54 01 03 61 B4 00 01 DB D0 01 03 02 00 7C B9 A5
12:25:27.577,COM15,RX,Read Holding Regs  unit=1  addr=16  qty=18  [CRC OK]
12:25:27.577,COM15,   ,RAW: 01 03 00 10 00 12 C4 02
12:25:27.720,COM15,RX,Read Holding Regs  unit=1  addr=9216  qty=84  [CRC OK]
12:25:27.720,COM15,   ,RAW: 01 03 24 00 00 54 E7 00 00 55 0B 00 00 54 3D 00 02 E7 AA 00 02 E9 F0 00 02 E8 C0 00 05 09 28 00 05 0B D8 00 05 09 16 84 A8
12:25:27.752,COM15,RX,Read Holding Regs  unit=1  addr=102  qty=16  [CRC OK]
12:25:27.752,COM15,   ,RAW: 01 03 00 66 00 10 A4 19
12:25:27.896,COM15,RX,Read Holding Regs  unit=1  addr=8192  qty=4839  [CRC FAIL calc=E9A5 recv=F2A5]
12:25:27.896,COM15,   ,RAW: 01 03 20 00 12 E7 1F 00 00 00 00 00 12 E8 AF 00 00 00 00 00 00 00 00 00 00 00 00 00 00 00 00 00 00 7B 0B 49 62 01 03 00 A6 00 24 A5 F2
12:25:28.135,COM15,RX,Read Holding Regs  unit=1  addr=18441  qty=47585  [CRC FAIL calc=A52A recv=0051]
12:25:28.135,COM15,   ,RAW: 01 03 48 09 B9 E1 0C 00 08 D4 AF 09 FB DE 28 00 12 4A BE 00 0B 3B 78 00 97 81 64 05 C7 62 51 00
12:25:28.214,COM15,RX,FC37  unit=3  [CRC FAIL calc=89BB recv=A5B9]
12:25:28.214,COM15,   ,RAW: 03 25 A5 00 00 03 E8 00 1F 25 81 00 00 59 0C 00 1F 15 36 00 00 2E 21 00 00 00 03 00 11 72 2A 00 00 00 02 00 08 CF 46 00 00 13 8A B4 1A 01 03 61 B4 00 01 DB D0 01 03 02 00 7C B9 A5
12:25:29.250,COM15,RX,Read Holding Regs  unit=1  addr=16  qty=18  [CRC OK]
12:25:29.250,COM15,   ,RAW: 01 03 00 10 00 12 C4 02
12:25:29.410,COM15,RX,Read Holding Regs  unit=1  addr=9216  qty=85  [CRC FAIL calc=02A4 recv=19A4]
12:25:29.410,COM15,   ,RAW: 01 03 24 00 00 55 6F 00 00 55 A7 00 00 54 A3 00 02 E8 BA 00 02 EA 3F 00 02 E8 A4 00 05 0A D1 00 05 0B 78 00 05 09 FB 23 72 01 03 00 66 00 10 A4 19
12:25:29.570,COM15,RX,Read Holding Regs  unit=1  addr=8192  qty=4866  [CRC FAIL calc=E9A5 recv=F2A5]
12:25:29.571,COM15,   ,RAW: 01 03 20 00 13 02 8C 00 00 00 00 00 13 06 B5 00 00 00 00 00 00 00 00 00 00 00 00 00 00 00 00 00 00 C9 44 F7 35 01 03 00 A6 00 24 A5 F2
12:25:29.809,COM15,RX,Read Holding Regs  unit=1  addr=18441  qty=47587  [CRC FAIL calc=6F2A recv=0070]
12:25:29.809,COM15,   ,RAW: 01 03 48 09 B9 E3 C1 00 08 D4 AF 09 FB E0 DC 00 12 4A BE 00 0B 3B 78 00 97 81 64 05 C7 62 70 00
12:25:29.887,COM15,RX,FC37  unit=3  [CRC FAIL calc=41B0 recv=A5B9]
12:25:29.887,COM15,   ,RAW: 03 25 A5 00 00 03 E7 00 1F 25 81 00 00 59 0C 00 1F 15 36 00 00 2E 21 00 00 00 03 00 11 72 2A 00 00 00 02 00 08 CF 46 00 00 13 8B 7E 55 01 03 61 B4 00 01 DB D0 01 03 02 00 7C B9 A5
12:25:30.920,COM15,RX,Read Holding Regs  unit=1  addr=16  qty=18  [CRC OK]
12:25:30.920,COM15,   ,RAW: 01 03 00 10 00 12 C4 02
12:25:31.096,COM15,RX,Read Holding Regs  unit=1  addr=9216  qty=85  [CRC FAIL calc=02A4 recv=19A4]
12:25:31.096,COM15,   ,RAW: 01 03 24 00 00 55 7B 00 00 55 61 00 00 54 02 00 02 E5 38 00 02 E8 9D 00 02 E8 FA 00 05 04 BE 00 05 0B F4 00 05 07 41 91 04 01 03 00 66 00 10 A4 19
12:25:31.224,COM15,RX,Read Holding Regs  unit=1  addr=8192  qty=4845  [CRC OK]
12:25:31.224,COM15,   ,RAW: 01 03 20 00 12 ED 5C 00 00 00 00 00 12 F1 13 00 00 00 00 00 00 00 00 00 00 00 00 00 00 00 00 00 00 BD C5 F9 14
12:25:31.256,COM15,RX,Read Holding Regs  unit=1  addr=166  qty=36  [CRC OK]
12:25:31.256,COM15,   ,RAW: 01 03 00 A6 00 24 A5 F2
12:25:31.480,COM15,RX,Read Holding Regs  unit=1  addr=18441  qty=47589  [CRC FAIL calc=0519 recv=007D]
12:25:31.480,COM15,   ,RAW: 01 03 48 09 B9 E5 18 00 08 D4 AF 09 FB E2 34 00 12 4A BE 00 0B 3B 78 00 97 81 64 05 C7 62 7D 00
12:25:31.543,COM15,RX,FC37  unit=3  [CRC FAIL calc=D705 recv=D0DB]
12:25:31.543,COM15,   ,RAW: 03 25 A5 00 00 03 E7 00 1F 25 81 00 00 59 0C 00 1F 15 36 00 00 2E 21 00 00 00 03 00 11 72 2A 00 00 00 02 00 08 CF 46 00 00 13 8B 75 0C 01 03 61 B4 00 01 DB D0
12:25:31.575,COM15,RX,Read Holding Regs  unit=1  [CRC OK]
12:25:31.575,COM15,   ,RAW: 01 03 02 00 7C B9 A5
12:25:32.595,COM15,RX,Read Holding Regs  unit=1  addr=16  qty=18  [CRC OK]
12:25:32.595,COM15,   ,RAW: 01 03 00 10 00 12 C4 02
12:25:32.771,COM15,RX,Read Holding Regs  unit=1  addr=9216  qty=84  [CRC FAIL calc=02A4 recv=19A4]
12:25:32.771,COM15,   ,RAW: 01 03 24 00 00 54 D4 00 00 54 E8 00 00 54 1C 00 02 E5 2C 00 02 E8 6E 00 02 E8 2B 00 05 04 E8 00 05 0A CE 00 05 06 71 64 12 01 03 00 66 00 10 A4 19
12:25:32.932,COM15,RX,Read Holding Regs  unit=1  addr=8192  qty=4827  [CRC FAIL calc=E9A5 recv=F2A5]
12:25:32.932,COM15,   ,RAW: 01 03 20 00 12 DB 11 00 00 00 00 00 12 DB F1 00 00 00 00 00 00 00 00 00 00 00 00 00 00 00 00 00 00 5B D6 CE 88 01 03 00 A6 00 24 A5 F2
12:25:33.155,COM15,RX,Read Holding Regs  unit=1  addr=18441  qty=47591  [CRC FAIL calc=D4A7 recv=008D]
12:25:33.156,COM15,   ,RAW: 01 03 48 09 B9 E7 C7 00 08 D4 AF 09 FB E4 E3 00 12 4A BE 00 0B 3B 78 00 97 81 64 05 C7 62 8D 00
12:25:33.251,COM15,RX,FC37  unit=3  [CRC FAIL calc=DFAB recv=A5B9]
12:25:33.251,COM15,   ,RAW: 03 25 A5 00 00 03 E8 00 1F 25 81 00 00 59 0C 00 1F 15 36 00 00 2E 21 00 00 00 03 00 11 72 2A 00 00 00 02 00 08 CF 46 00 00 13 8B 1D A2 01 03 61 B4 00 01 DB D0 01 03 02 00 7C B9 A5
12:25:34.272,COM15,RX,Read Holding Regs  unit=1  addr=16  qty=18  [CRC OK]
12:25:34.272,COM15,   ,RAW: 01 03 00 10 00 12 C4 02
12:25:34.415,COM15,RX,Read Holding Regs  unit=1  addr=9216  qty=85  [CRC OK]
12:25:34.415,COM15,   ,RAW: 01 03 24 00 00 55 1D 00 00 55 31 00 00 54 5E 00 02 E7 42 00 02 E9 40 00 02 E8 85 00 05 08 04 00 05 0B 05 00 05 08 C2 77 61
12:25:34.447,COM15,RX,Read Holding Regs  unit=1  addr=102  qty=16  [CRC OK]
12:25:34.447,COM15,   ,RAW: 01 03 00 66 00 10 A4 19
12:25:34.590,COM15,RX,Read Holding Regs  unit=1  addr=8192  qty=4846  [CRC FAIL calc=E9A5 recv=F2A5]
12:25:34.590,COM15,   ,RAW: 01 03 20 00 12 EE 4E 00 00 00 00 00 12 EF 9F 00 00 00 00 00 00 00 00 00 00 00 00 00 00 00 00 00 00 70 F2 42 38 01 03 00 A6 00 24 A5 F2
12:25:34.829,COM15,RX,Read Holding Regs  unit=1  addr=18441  qty=47594  [CRC FAIL calc=4005 recv=00A2]
12:25:34.829,COM15,   ,RAW: 01 03 48 09 B9 EA 79 00 08 D4 AF 09 FB E7 96 00 12 4A BE 00 0B 3B 78 00 97 81 64 05 C7 62 A2 00
12:25:34.877,COM15,RX,FC37  unit=3  [CRC FAIL calc=FA3E recv=B720]
12:25:34.877,COM15,   ,RAW: 03 25 A5 00 00 03 E7 00 1F 25 81 00 00 59 0C 00 1F 15 36 00 00 2E 21 00 00 00 03 00 11 72 2A 00 00 00 02 00 08 CF 46 00 00 13 8A 20 B7
12:25:34.925,COM15,RX,Read Holding Regs  unit=1  addr=25012  qty=1  [CRC FAIL calc=A59D recv=A5B9]
12:25:34.925,COM15,   ,RAW: 01 03 61 B4 00 01 DB D0 01 03 02 00 7C B9 A5
12:25:35.946,COM15,RX,Read Holding Regs  unit=1  addr=16  qty=18  [CRC OK]
12:25:35.946,COM15,   ,RAW: 01 03 00 10 00 12 C4 02
12:25:36.122,COM15,RX,Read Holding Regs  unit=1  addr=9216  qty=85  [CRC FAIL calc=02A4 recv=19A4]
12:25:36.122,COM15,   ,RAW: 01 03 24 00 00 55 F7 00 00 55 D9 00 00 54 B9 00 02 E7 D2 00 02 E9 4A 00 02 E8 FE 00 05 08 88 00 05 0B 46 00 05 09 D9 88 CD 01 03 00 66 00 10 A4 19
12:25:36.250,COM15,RX,Read Holding Regs  unit=1  addr=8192  qty=4878  [CRC OK]
12:25:36.250,COM15,   ,RAW: 01 03 20 00 13 0E 19 00 00 00 00 00 13 13 66 00 00 00 00 00 00 00 00 00 00 00 00 00 00 00 00 00 00 E3 81 95 60
12:25:36.282,COM15,RX,Read Holding Regs  unit=1  addr=166  qty=36  [CRC OK]
12:25:36.282,COM15,   ,RAW: 01 03 00 A6 00 24 A5 F2
12:25:36.520,COM15,RX,Read Holding Regs  unit=1  addr=18441  qty=47595  [CRC FAIL calc=7F38 recv=00B1]
12:25:36.520,COM15,   ,RAW: 01 03 48 09 B9 EB D4 00 08 D4 AF 09 FB E8 F1 00 12 4A BE 00 0B 3B 78 00 97 81 64 05 C7 62 B1 00
12:25:36.600,COM15,RX,FC37  unit=3  [CRC FAIL calc=105A recv=A5B9]
12:25:36.600,COM15,   ,RAW: 03 25 A5 00 00 03 E7 00 1F 25 81 00 00 59 0C 00 1F 15 36 00 00 2E 21 00 00 00 03 00 11 72 2A 00 00 00 02 00 08 CF 46 00 00 13 8B 5C 1D 01 03 61 B4 00 01 DB D0 01 03 02 00 7C B9 A5
12:25:37.621,COM15,RX,Read Holding Regs  unit=1  addr=16  qty=18  [CRC OK]
12:25:37.621,COM15,   ,RAW: 01 03 00 10 00 12 C4 02
12:25:37.765,COM15,RX,Read Holding Regs  unit=1  addr=9216  qty=85  [CRC OK]
12:25:37.765,COM15,   ,RAW: 01 03 24 00 00 55 54 00 00 55 25 00 00 54 14 00 02 E3 C5 00 02 E7 F7 00 02 E8 DD 00 05 02 5C 00 05 0B DE 00 05 05 E4 A1 9C
12:25:37.797,COM15,RX,Read Holding Regs  unit=1  addr=102  qty=16  [CRC OK]
12:25:37.797,COM15,   ,RAW: 01 03 00 66 00 10 A4 19
12:25:37.941,COM15,RX,Read Holding Regs  unit=1  addr=8192  qty=4837  [CRC FAIL calc=E9A5 recv=F2A5]
12:25:37.941,COM15,   ,RAW: 01 03 20 00 12 E5 C0 00 00 00 00 00 12 E7 D4 00 00 00 00 00 00 00 00 00 00 00 00 00 00 00 00 00 00 8D C7 32 BC 01 03 00 A6 00 24 A5 F2
12:25:38.181,COM15,RX,Read Holding Regs  unit=1  addr=18441  qty=47598  [CRC FAIL calc=4917 recv=00CA]
12:25:38.181,COM15,   ,RAW: 01 03 48 09 B9 EE 85 00 08 D4 AF 09 FB EB A2 00 12 4A BE 00 0B 3B 78 00 97 81 64 05 C7 62 CA 00
12:25:38.229,COM15,RX,FC37  unit=3  [CRC FAIL calc=0A80 recv=82A9]
12:25:38.229,COM15,   ,RAW: 03 25 A5 00 00 03 E8 00 1F 25 81 00 00 59 0C 00 1F 15 36 00 00 2E 21 00 00 00 03 00 11 72 2A 00 00 00 02 00 08 CF 46 00 00 13 8A A9 82
12:25:38.277,COM15,RX,Read Holding Regs  unit=1  addr=25012  qty=1  [CRC FAIL calc=A59D recv=A5B9]
12:25:38.277,COM15,   ,RAW: 01 03 61 B4 00 01 DB D0 01 03 02 00 7C B9 A5
12:25:39.298,COM15,RX,Read Holding Regs  unit=1  addr=16  qty=18  [CRC OK]
12:25:39.298,COM15,   ,RAW: 01 03 00 10 00 12 C4 02
12:25:39.474,COM15,RX,Read Holding Regs  unit=1  addr=9216  qty=84  [CRC FAIL calc=02A4 recv=19A4]
12:25:39.474,COM15,   ,RAW: 01 03 24 00 00 54 E4 00 00 55 1F 00 00 54 51 00 02 E4 B3 00 02 E7 FA 00 02 E8 52 00 05 03 BF 00 05 0A BA 00 05 06 57 DF EB 01 03 00 66 00 10 A4 19
12:25:39.600,COM15,RX,Read Holding Regs  unit=1  addr=8192  qty=4834  [CRC OK]
12:25:39.600,COM15,   ,RAW: 01 03 20 00 12 E2 AB 00 00 00 00 00 12 E3 A4 00 00 00 00 00 00 00 00 00 00 00 00 00 00 00 00 00 00 60 F2 C5 8B
12:25:39.632,COM15,RX,Read Holding Regs  unit=1  addr=166  qty=36  [CRC OK]
12:25:39.632,COM15,   ,RAW: 01 03 00 A6 00 24 A5 F2
12:25:39.855,COM15,RX,Read Holding Regs  unit=1  addr=18441  qty=47601  [CRC FAIL calc=9202 recv=00D9]
12:25:39.855,COM15,   ,RAW: 01 03 48 09 B9 F1 36 00 08 D4 AF 09 FB EE 53 00 12 4A BE 00 0B 3B 78 00 97 81 64 05 C7 62 D9 00
12:25:39.903,COM15,RX,FC37  unit=3  [CRC FAIL calc=0A80 recv=510D]
12:25:39.903,COM15,   ,RAW: 03 25 A5 00 00 03 E8 00 1F 25 81 00 00 59 0C 00 1F 15 36 00 00 2E 21 00 00 00 03 00 11 72 2A 00 00 00 02 00 08 CF 46 00 00 13 8A 0D 51
12:25:39.950,COM15,RX,Read Holding Regs  unit=1  addr=25012  qty=1  [CRC FAIL calc=A59D recv=A5B9]
12:25:39.950,COM15,   ,RAW: 01 03 61 B4 00 01 DB D0 01 03 02 00 7C B9 A5
12:25:40.971,COM15,RX,Read Holding Regs  unit=1  addr=16  qty=18  [CRC OK]
12:25:40.971,COM15,   ,RAW: 01 03 00 10 00 12 C4 02
12:25:41.115,COM15,RX,Read Holding Regs  unit=1  addr=9216  qty=85  [CRC OK]
12:25:41.116,COM15,   ,RAW: 01 03 24 00 00 55 A8 00 00 55 D7 00 00 54 79 00 02 E8 4D 00 02 E9 9C 00 02 E8 02 00 05 09 F6 00 05 0A 3E 00 05 09 21 AF 5A
12:25:41.147,COM15,RX,Read Holding Regs  unit=1  addr=102  qty=16  [CRC OK]
12:25:41.147,COM15,   ,RAW: 01 03 00 66 00 10 A4 19
12:25:41.307,COM15,RX,Read Holding Regs  unit=1  addr=8192  qty=4869  [CRC FAIL calc=E9A5 recv=F2A5]
12:25:41.307,COM15,   ,RAW: 01 03 20 00 13 05 55 00 00 00 00 00 13 08 2E 00 00 00 00 00 00 00 00 00 00 00 00 00 00 00 00 00 00 A6 9A C6 40 01 03 00 A6 00 24 A5 F2
12:25:41.528,COM15,RX,Read Holding Regs  unit=1  addr=18441  qty=47602  [CRC FAIL calc=5359 recv=00E5]
12:25:41.528,COM15,   ,RAW: 01 03 48 09 B9 F2 90 00 08 D4 AF 09 FB EF AD 00 12 4A BE 00 0B 3B 78 00 97 81 64 05 C7 62 E5 00
12:25:41.576,COM15,RX,FC37  unit=3  [CRC FAIL calc=FB7E recv=641F]
12:25:41.576,COM15,   ,RAW: 03 25 A5 00 00 03 E7 00 1F 25 81 00 00 59 0C 00 1F 15 36 00 00 2E 21 00 00 00 03 00 11 72 2A 00 00 00 02 00 08 CF 46 00 00 13 89 1F 64
12:25:41.623,COM15,RX,Read Holding Regs  unit=1  addr=25012  qty=1  [CRC FAIL calc=A59D recv=A5B9]
12:25:41.624,COM15,   ,RAW: 01 03 61 B4 00 01 DB D0 01 03 02 00 7C B9 A5
12:25:42.655,COM15,RX,Read Holding Regs  unit=1  addr=16  qty=18  [CRC OK]
12:25:42.655,COM15,   ,RAW: 01 03 00 10 00 12 C4 02
12:25:42.814,COM15,RX,Read Holding Regs  unit=1  addr=9216  qty=85  [CRC FAIL calc=02A4 recv=19A4]
12:25:42.814,COM15,   ,RAW: 01 03 24 00 00 55 DE 00 00 55 A9 00 00 54 79 00 02 E5 DB 00 02 E8 B9 00 02 E9 1F 00 05 05 81 00 05 0B E4 00 05 08 19 5C 85 01 03 00 66 00 10 A4 19
12:25:42.974,COM15,RX,Read Holding Regs  unit=1  addr=8192  qty=4867  [CRC FAIL calc=E9A5 recv=F2A5]
12:25:42.974,COM15,   ,RAW: 01 03 20 00 13 03 99 00 00 00 00 00 13 07 B4 00 00 00 00 00 00 00 00 00 00 00 00 00 00 00 00 00 00 C7 E0 F3 B9 01 03 00 A6 00 24 A5 F2
12:25:43.213,COM15,RX,Read Holding Regs  unit=1  addr=18441  qty=47605  [CRC FAIL calc=418A recv=0003]
12:25:43.213,COM15,   ,RAW: 01 03 48 09 B9 F5 45 00 08 D4 AF 09 FB F2 64 00 12 4A BE 00 0B 3B 78 00 97 81 64 05 C7 63 03 00
12:25:43.292,COM15,RX,FC37  unit=3  [CRC FAIL calc=223A recv=A5B9]
12:25:43.292,COM15,   ,RAW: 03 25 A5 00 00 03 E7 00 1F 25 81 00 00 59 0C 00 1F 15 36 00 00 2E 21 00 00 00 03 00 11 72 2A 00 00 00 02 00 08 CF 46 00 00 13 89 73 92 01 03 61 B4 00 01 DB D0 01 03 02 00 7C B9 A5
12:25:44.327,COM15,RX,Read Holding Regs  unit=1  addr=16  qty=18  [CRC OK]
12:25:44.328,COM15,   ,RAW: 01 03 00 10 00 12 C4 02
12:25:44.486,COM15,RX,Read Holding Regs  unit=1  addr=9216  qty=85  [CRC FAIL calc=02A4 recv=19A4]
12:25:44.486,COM15,   ,RAW: 01 03 24 00 00 55 4D 00 00 55 46 00 00 54 6C 00 02 E3 B7 00 02 E8 19 00 02 E8 77 00 05 02 B5 00 05 0B 98 00 05 05 45 1A 6C 01 03 00 66 00 10 A4 19
12:25:44.645,COM15,RX,Read Holding Regs  unit=1  addr=8192  qty=4845  [CRC FAIL calc=E9A5 recv=F2A5]
12:25:44.645,COM15,   ,RAW: 01 03 20 00 12 ED 5E 00 00 00 00 00 12 EF C6 00 00 00 00 00 00 00 00 00 00 00 00 00 00 00 00 00 00 65 4A 8A FA 01 03 00 A6 00 24 A5 F2
12:25:44.884,COM15,RX,Read Holding Regs  unit=1  addr=18441  qty=47607  [CRC FAIL calc=C961 recv=0016]
12:25:44.884,COM15,   ,RAW: 01 03 48 09 B9 F7 F6 00 08 D4 AF 09 FB F5 14 00 12 4A BE 00 0B 3B 78 00 97 81 64 05 C7 63 16 00
12:25:44.980,COM15,RX,FC37  unit=3  [CRC FAIL calc=A874 recv=A5B9]
12:25:44.980,COM15,   ,RAW: 03 25 A5 00 00 03 E8 00 1F 25 81 00 00 59 0C 00 1F 15 36 00 00 2E 21 00 00 00 03 00 11 72 2A 00 00 00 02 00 08 CF 46 00 00 13 89 7C 5C 01 03 61 B4 00 01 DB D0 01 03 02 00 7C B9 A5
12:25:45.984,COM15,RX,Read Holding Regs  unit=1  addr=16  qty=18  [CRC OK]
12:25:45.984,COM15,   ,RAW: 01 03 00 10 00 12 C4 02
12:25:46.158,COM15,RX,Read Holding Regs  unit=1  addr=9216  qty=85  [CRC FAIL calc=02A4 recv=19A4]
12:25:46.158,COM15,   ,RAW: 01 03 24 00 00 55 29 00 00 55 61 00 00 54 9B 00 02 E6 A2 00 02 E9 18 00 02 E7 F8 00 05 07 6F 00 05 0A 8B 00 05 07 80 47 2A 01 03 00 66 00 10 A4 19
12:25:46.317,COM15,RX,Read Holding Regs  unit=1  addr=8192  qty=4853  [CRC FAIL calc=E9A5 recv=F2A5]
12:25:46.317,COM15,   ,RAW: 01 03 20 00 12 F5 C1 00 00 00 00 00 12 F6 D8 00 00 00 00 00 00 00 00 00 00 00 00 00 00 00 00 00 00 66 DF AD 4A 01 03 00 A6 00 24 A5 F2
12:25:46.556,COM15,RX,Read Holding Regs  unit=1  addr=18441  qty=47609  [CRC FAIL calc=39AF recv=001C]
12:25:46.556,COM15,   ,RAW: 01 03 48 09 B9 F9 4F 00 08 D4 AF 09 FB F6 6D 00 12 4A BE 00 0B 3B 78 00 97 81 64 05 C7 63 1C 00
12:25:46.636,COM15,RX,FC37  unit=3  [CRC FAIL calc=9B8C recv=A5B9]
12:25:46.636,COM15,   ,RAW: 03 25 A5 00 00 03 E8 00 1F 25 81 00 00 59 0C 00 1F 15 36 00 00 2E 21 00 00 00 03 00 11 72 2A 00 00 00 02 00 08 CF 46 00 00 13 89 1F 86 01 03 61 B4 00 01 DB D0 01 03 02 00 7C B9 A5
12:25:47.667,COM15,RX,Read Holding Regs  unit=1  addr=16  qty=18  [CRC OK]
12:25:47.667,COM15,   ,RAW: 01 03 00 10 00 12 C4 02
12:25:47.842,COM15,RX,Read Holding Regs  unit=1  addr=9216  qty=86  [CRC FAIL calc=02A4 recv=19A4]
12:25:47.842,COM15,   ,RAW: 01 03 24 00 00 56 13 00 00 56 2B 00 00 54 F5 00 02 E7 D6 00 02 E8 D6 00 02 E8 67 00 05 08 55 00 05 0A 15 00 05 09 76 F3 5C 01 03 00 66 00 10 A4 19
12:25:47.986,COM15,RX,Read Holding Regs  unit=1  addr=8192  qty=4887  [CRC FAIL calc=E9A5 recv=F2A5]
12:25:47.986,COM15,   ,RAW: 01 03 20 00 13 17 A5 00 00 00 00 00 13 1C F8 00 00 00 00 00 00 00 00 00 00 00 00 00 00 00 00 00 00 E4 2E 19 86 01 03 00 A6 00 24 A5 F2
12:25:48.226,COM15,RX,Read Holding Regs  unit=1  addr=18441  qty=47612  [CRC FAIL calc=D542 recv=0038]
12:25:48.226,COM15,   ,RAW: 01 03 48 09 B9 FC 05 00 08 D4 AF 09 FB F9 23 00 12 4A BE 00 0B 3B 78 00 97 81 64 05 C7 63 38 00
12:25:48.306,COM15,RX,FC37  unit=3  [CRC FAIL calc=DEBA recv=A5B9]
12:25:48.306,COM15,   ,RAW: 03 25 A5 00 00 03 E7 00 1F 25 81 00 00 59 0C 00 1F 15 36 00 00 2E 21 00 00 00 03 00 11 72 2A 00 00 00 02 00 08 CF 46 00 00 13 89 8E 2F 01 03 61 B4 00 01 DB D0 01 03 02 00 7C B9 A5
12:25:49.339,COM15,RX,Read Holding Regs  unit=1  addr=16  qty=18  [CRC OK]
12:25:49.340,COM15,   ,RAW: 01 03 00 10 00 12 C4 02
12:25:49.514,COM15,RX,Read Holding Regs  unit=1  addr=9216  qty=85  [CRC FAIL calc=02A4 recv=19A4]
12:25:49.514,COM15,   ,RAW: 01 03 24 00 00 55 ED 00 00 56 06 00 00 54 A9 00 02 E6 85 00 02 E8 E9 00 02 E9 2A 00 05 06 76 00 05 0B C6 00 05 08 CD DD EE 01 03 00 66 00 10 A4 19
12:25:49.673,COM15,RX,Read Holding Regs  unit=1  addr=8192  qty=4879  [CRC FAIL calc=E9A5 recv=F2A5]
12:25:49.673,COM15,   ,RAW: 01 03 20 00 13 0F DB 00 00 00 00 00 13 14 77 00 00 00 00 00 00 00 00 00 00 00 00 00 00 00 00 00 00 A8 8C D7 30 01 03 00 A6 00 24 A5 F2
12:25:49.896,COM15,RX,Read Holding Regs  unit=1  addr=18441  qty=47614  [CRC FAIL calc=5BED recv=0052]
12:25:49.896,COM15,   ,RAW: 01 03 48 09 B9 FE B9 00 08 D4 AF 09 FB FB D8 00 12 4A BE 00 0B 3B 78 00 97 81 64 05 C7 63 52 00
12:25:49.944,COM15,RX,FC37  unit=3  [CRC FAIL calc=FB7E recv=5BA3]
12:25:49.944,COM15,   ,RAW: 03 25 A5 00 00 03 E7 00 1F 25 81 00 00 59 0C 00 1F 15 36 00 00 2E 21 00 00 00 03 00 11 72 2A 00 00 00 02 00 08 CF 46 00 00 13 89 A3 5B
12:25:49.992,COM15,RX,Read Holding Regs  unit=1  addr=25012  qty=1  [CRC FAIL calc=A59D recv=A5B9]
12:25:49.992,COM15,   ,RAW: 01 03 61 B4 00 01 DB D0 01 03 02 00 7C B9 A5
12:25:51.026,COM15,RX,Read Holding Regs  unit=1  addr=16  qty=18  [CRC OK]
12:25:51.026,COM15,   ,RAW: 01 03 00 10 00 12 C4 02
12:25:51.185,COM15,RX,Read Holding Regs  unit=1  addr=9216  qty=84  [CRC FAIL calc=02A4 recv=19A4]
12:25:51.185,COM15,   ,RAW: 01 03 24 00 00 54 F3 00 00 55 41 00 00 54 7F 00 02 E4 5A 00 02 E8 38 00 02 E8 25 00 05 03 B9 00 05 0B 01 00 05 05 99 32 F8 01 03 00 66 00 10 A4 19
12:25:51.343,COM15,RX,Read Holding Regs  unit=1  addr=8192  qty=4842  [CRC FAIL calc=E9A5 recv=F2A5]
