Listener Log  20260406_132724
======================================================================
Time            Source                  Dir    Description
----------------------------------------------------------------------
13:27:24.680    COM15                   SYS    Opened COM15 @ 9600 N81.0
13:27:24.745    COM15                   RX     FC180  unit=52  [CRC FAIL calc=9BB8 recv=3635]
13:27:24.745    COM15                          RAW: 34 B4 01 04 06 00 01 00 02 FF FF FD 23 04 04 13 88 00 0B 35 36
13:27:24.793    COM15                   RX     Read Input Regs  unit=4  addr=5643  qty=47104  [CRC FAIL calc=FC34 recv=E734]
13:27:24.793    COM15                          RAW: 04 04 16 0B B8 00 02 0E 43 75 40 00 04 09 3E 00 00 01 E2 1F D6 00 03 29 51 2D C6 05 04 13 88 00 0B 34 E7
13:27:24.857    COM15                   RX     Read Input Regs  unit=5  addr=5643  qty=47104  [CRC FAIL calc=5E75 recv=4575]
13:27:24.857    COM15                          RAW: 05 04 16 0B B8 00 02 0E 6A 7E BF 00 04 09 3E 00 00 01 DF 23 56 00 03 29 BC 66 BC 03 04 13 98 00 08 75 45
13:27:24.904    COM15                   RX     Read Input Regs  unit=3  addr=4187  qty=65024  [CRC FAIL calc=CF34 recv=D434]
13:27:24.904    COM15                          RAW: 03 04 10 5B FE 00 03 20 98 20 90 20 86 05 DF 05 DC 05 D9 A4 07 06 04 13 88 00 0B 34 D4
13:27:24.952    COM15                   RX     Read Input Regs  unit=6  addr=5643  qty=47104  [CRC FAIL calc=8794 recv=9C94]
13:27:24.952    COM15                          RAW: 06 04 16 0B B8 00 02 10 87 13 E9 00 05 09 36 00 00 01 E1 93 A8 00 03 29 3B 9C 9B 02 04 13 A6 00 06 94 9C
13:27:24.999    COM15                   RX     Read Input Regs  unit=2  addr=3193  qty=51968  [CRC FAIL calc=1E35 recv=0535]
13:27:25.000    COM15                          RAW: 02 04 0C 79 CB 00 03 DB D6 FF FF 03 E7 01 F5 CC 9F 07 04 13 88 00 0B 35 05
13:27:25.031    COM15                   RX     Read Input Regs  unit=7  addr=5643  qty=47104  [CRC OK]
13:27:25.031    COM15                          RAW: 07 04 16 0B B8 00 02 0C 60 78 52 00 03 08 D8 00 00 01 D2 A7 8E 00 02 2A 04 E8 E1
13:27:25.095    COM15                   RX     Read Input Regs  unit=1  addr=5092  qty=8  [CRC FAIL calc=0013 recv=F274]
13:27:25.095    COM15                          RAW: 01 04 13 E4 00 08 B5 7F 01 04 10 FF FF FF FF FF FF FF FF FF FF FF FF FF FF FF FF 15 5C 04 04 13 98 00 08 74 F2
13:27:25.127    COM15                   RX     Read Input Regs  unit=4  addr=4135  qty=24064  [CRC OK]
13:27:25.127    COM15                          RAW: 04 04 10 27 5E 00 03 20 78 20 64 20 59 05 8A 05 8D 05 8D 82 02
13:27:25.175    COM15                   RX     Read Input Regs  unit=5  addr=5016  qty=8  [CRC FAIL calc=2C17 recv=0833]
13:27:25.175    COM15                          RAW: 05 04 13 98 00 08 75 23 05 04 10 2F 64 00 03 20 A2 20 87 20 80 05 8F 05 8F 05 8E 33 08
13:27:25.223    COM15                   RX     Read Input Regs  unit=3  addr=5030  qty=6  [CRC FAIL calc=E821 recv=5761]
13:27:25.223    COM15                          RAW: 03 04 13 A6 00 06 95 4D 03 04 0C 4F 56 00 03 DD 94 FF FF 03 E7 01 F5 61 57
13:27:25.270    COM15                   RX     Read Input Regs  unit=6  addr=5016  qty=8  [CRC FAIL calc=625A recv=467E]
13:27:25.270    COM15                          RAW: 06 04 13 98 00 08 75 10 06 04 10 A5 7A 00 03 20 73 20 73 20 6E 06 5C 06 59 06 5C 7E 46
13:27:25.327    COM15                   RX     Read Input Regs  unit=2  addr=5080  qty=3  [CRC FAIL calc=AA04 recv=C174]
13:27:25.327    COM15                          RAW: 02 04 13 D8 00 03 34 87 02 04 06 00 01 00 02 FF FF E9 D3 07 04 13 98 00 08 74 C1
13:27:25.352    COM15                   RX     Read Input Regs  unit=7  addr=4275  qty=64768  [CRC OK]
13:27:25.352    COM15                          RAW: 07 04 10 B3 FD 00 02 20 70 20 59 20 4C 04 B7 04 BB 04 BC 66 83
13:27:25.370    COM15                   RX     Read Input Regs  unit=1  addr=5147  qty=4  [CRC OK]
13:27:25.370    COM15                          RAW: 01 04 14 1B 00 04 84 3E
13:27:25.387    COM15                   RX     Read Input Regs  unit=1  addr=2067  qty=38655  [CRC OK]
13:27:25.387    COM15                          RAW: 01 04 08 13 96 FF FF 00 00 00 00 93 06
13:27:25.411    COM15                   RX     Read Input Regs  unit=4  addr=5030  qty=6  [CRC OK]
13:27:25.411    COM15                          RAW: 04 04 13 A6 00 06 94 FA
13:27:25.436    COM15                   RX     Read Input Regs  unit=4  addr=3101  qty=39168  [CRC OK]
13:27:25.436    COM15                          RAW: 04 04 0C 1D 99 00 03 DF 7E FF FF 03 E7 01 F5 19 52
13:27:25.460    COM15                   RX     Read Input Regs  unit=5  addr=5030  qty=6  [CRC OK]
13:27:25.460    COM15                          RAW: 05 04 13 A6 00 06 95 2B
13:27:25.485    COM15                   RX     Read Input Regs  unit=5  addr=3106  qty=44288  [CRC OK]
13:27:25.486    COM15                          RAW: 05 04 0C 22 AD 00 03 DF 58 FF FF 03 E7 01 F5 21 F4
13:27:25.565    COM15                   RX     Read Input Regs  unit=3  addr=5080  qty=3  [CRC FAIL calc=9F5B recv=E451]
13:27:25.565    COM15                          RAW: 03 04 13 D8 00 03 35 56 03 04 06 00 01 00 02 FF FF E4 43 06 04 13 A6 00 06 95 18 06 04 0C 92 E7 00 03 DA CD FF FF 03 E7 01 F5 51 E4
13:27:25.676    COM15                   RX     Read Input Regs  unit=2  addr=5092  qty=8  [CRC FAIL calc=A712 recv=3BB7]
13:27:25.677    COM15                          RAW: 02 04 13 E4 00 08 B5 4C 02 04 10 FF FF FF FF FF FF FF FF FF FF FF FF FF FF FF FF 51 18 07 04 13 A6 00 06 94 C9 07 04 0C A6 FE 00 02 E4 49 FF FF 03 E7 01 F5 10 37 01 04 1B 64 00 18 B7 3B
13:27:25.740    COM15                   RX     Read Input Regs  unit=1  addr=12295  qty=33543  [CRC OK]
13:27:25.740    COM15                          RAW: 01 04 30 07 83 07 86 07 70 00 00 00 00 07 64 07 68 00 00 00 00 00 00 07 66 07 74 00 00 00 00 00 00 07 61 07 6A 00 00 00 00 00 00 07 94 07 89 00 00 00 00 F7 F9
13:27:25.835    COM15                   RX     Read Input Regs  unit=4  addr=5080  qty=3  [CRC FAIL calc=05F2 recv=9DB4]
13:27:25.836    COM15                          RAW: 04 04 13 D8 00 03 34 E1 04 04 06 00 01 00 02 FF FF C2 73 05 04 13 D8 00 03 35 30 05 04 06 00 01 00 02 FF FF CF E3 03 04 13 E4 00 08 B4 9D
13:27:25.861    COM15                   RX     Read Input Regs  unit=3  addr=4351  qty=65535  [CRC OK]
13:27:25.861    COM15                          RAW: 03 04 10 FF FF FF FF FF FF FF FF FF FF FF FF FF FF FF FF 6C E4
13:27:25.876    COM15                   RX     Read Input Regs  unit=6  addr=5080  qty=3  [CRC OK]
13:27:25.876    COM15                          RAW: 06 04 13 D8 00 03 35 03
13:27:25.894    COM15                   RX     Read Input Regs  unit=6  addr=1536  qty=256  [CRC OK]
13:27:25.894    COM15                          RAW: 06 04 06 00 01 00 02 FF FF DB 13
13:27:25.919    COM15                   RX     Read Input Regs  unit=2  addr=5147  qty=4  [CRC OK]
13:27:25.919    COM15                          RAW: 02 04 14 1B 00 04 84 0D
13:27:25.935    COM15                   RX     Read Input Regs  unit=2  addr=2067  qty=38655  [CRC OK]
13:27:25.935    COM15                          RAW: 02 04 08 13 96 FF FF 00 00 00 00 9C 42
13:27:25.977    COM15                   RX     Read Input Regs  unit=7  addr=5080  qty=3  [CRC FAIL calc=73DC recv=83D6]
13:27:25.977    COM15                          RAW: 07 04 13 D8 00 03 34 D2 07 04 06 00 01 00 02 FF FF D6 83
13:27:25.994    COM15                   RX     Read Input Regs  unit=4  addr=5092  qty=8  [CRC OK]
13:27:25.994    COM15                          RAW: 04 04 13 E4 00 08 B5 2A
13:27:26.019    COM15                   RX     Read Input Regs  unit=4  addr=4351  qty=65535  [CRC OK]
13:27:26.019    COM15                          RAW: 04 04 10 FF FF FF FF FF FF FF FF FF FF FF FF FF FF FF FF D9 90
13:27:26.043    COM15                   RX     Read Input Regs  unit=5  addr=5092  qty=8  [CRC OK]
13:27:26.043    COM15                          RAW: 05 04 13 E4 00 08 B4 FB
13:27:26.076    COM15                   RX     Read Input Regs  unit=5  addr=4351  qty=65535  [CRC OK]
13:27:26.076    COM15                          RAW: 05 04 10 FF FF FF FF FF FF FF FF FF FF FF FF FF FF FF FF E4 6C
13:27:26.094    COM15                   RX     Read Input Regs  unit=3  addr=5147  qty=4  [CRC OK]
13:27:26.094    COM15                          RAW: 03 04 14 1B 00 04 85 DC
13:27:26.119    COM15                   RX     Read Input Regs  unit=3  addr=2067  qty=38655  [CRC OK]
13:27:26.119    COM15                          RAW: 03 04 08 13 96 FF FF 00 00 00 00 98 BE
13:27:26.135    COM15                   RX     Read Input Regs  unit=6  addr=5092  qty=8  [CRC OK]
13:27:26.135    COM15                          RAW: 06 04 13 E4 00 08 B4 C8
13:27:26.160    COM15                   RX     Read Input Regs  unit=6  addr=4351  qty=65535  [CRC OK]
13:27:26.160    COM15                          RAW: 06 04 10 FF FF FF FF FF FF FF FF FF FF FF FF FF FF FF FF A0 28
13:27:26.177    COM15                   RX     Read Input Regs  unit=2  addr=7012  qty=24  [CRC OK]
13:27:26.177    COM15                          RAW: 02 04 1B 64 00 18 B7 08
13:27:26.219    COM15                   RX     Read Input Regs  unit=2  addr=12295  qty=31495  [CRC FAIL calc=7613 recv=0000]
13:27:26.219    COM15                          RAW: 02 04 30 07 7B 07 7B 00 00 00 00 00 00 07 59 07 58 00 00 00 00 00 00 07 7C 07 71 00 00 00 00 00
13:27:26.244    COM15                   RX     FC07  unit=0  [CRC FAIL calc=4124 recv=9AE2]
13:27:26.244    COM15                          RAW: 00 07 51 07 53 00 00 00 00 00 00 07 6C 07 68 00 00 00 00 E2 9A
13:27:26.269    COM15                   RX     Read Input Regs  unit=7  addr=5092  qty=8  [CRC OK]
13:27:26.269    COM15                          RAW: 07 04 13 E4 00 08 B5 19
13:27:26.292    COM15                   RX     Read Input Regs  unit=7  addr=4351  qty=65535  [CRC OK]
13:27:26.293    COM15                          RAW: 07 04 10 FF FF FF FF FF FF FF FF FF FF FF FF FF FF FF FF 9D D4
13:27:26.317    COM15                   RX     Read Input Regs  unit=4  addr=5147  qty=4  [CRC OK]
13:27:26.318    COM15                          RAW: 04 04 14 1B 00 04 84 6B
13:27:26.335    COM15                   RX     Read Input Regs  unit=4  addr=2067  qty=38655  [CRC OK]
13:27:26.335    COM15                          RAW: 04 04 08 13 96 FF FF 00 00 00 00 82 CA
13:27:26.352    COM15                   RX     Read Input Regs  unit=5  addr=5147  qty=4  [CRC OK]
13:27:26.352    COM15                          RAW: 05 04 14 1B 00 04 85 BA
13:27:26.377    COM15                   RX     Read Input Regs  unit=5  addr=2067  qty=38655  [CRC OK]
13:27:26.377    COM15                          RAW: 05 04 08 13 96 FF FF 00 00 00 00 86 36
13:27:26.393    COM15                   RX     Read Input Regs  unit=3  addr=7012  qty=24  [CRC OK]
13:27:26.393    COM15                          RAW: 03 04 1B 64 00 18 B6 D9
13:27:26.434    COM15                   RX     Read Input Regs  unit=3  addr=12295  qty=26375  [CRC FAIL calc=A32F recv=0000]
13:27:26.434    COM15                          RAW: 03 04 30 07 67 07 57 00 00 00 00 00 00 07 46 07 49 00 00 00 00 00 00 07 5F 03 CE 00 00 00 00 00
13:27:26.459    COM15                   RX     FC07  unit=0  [CRC FAIL calc=7497 recv=47B7]
13:27:26.459    COM15                          RAW: 00 07 6B 07 47 00 00 00 00 00 00 07 70 03 BE 00 00 00 00 B7 47
13:27:26.484    COM15                   RX     Read Input Regs  unit=6  addr=5147  qty=4  [CRC OK]
13:27:26.484    COM15                          RAW: 06 04 14 1B 00 04 85 89
13:27:26.502    COM15                   RX     Read Input Regs  unit=6  addr=2067  qty=38655  [CRC OK]
13:27:26.502    COM15                          RAW: 06 04 08 13 96 FF FF 00 00 00 00 89 72
13:27:26.526    COM15                   RX     Read Input Regs  unit=7  addr=5147  qty=4  [CRC OK]
13:27:26.526    COM15                          RAW: 07 04 14 1B 00 04 84 58
13:27:26.543    COM15                   RX     Read Input Regs  unit=7  addr=2067  qty=38655  [CRC OK]
13:27:26.543    COM15                          RAW: 07 04 08 13 96 FF FF 00 00 00 00 8D 8E
13:27:26.567    COM15                   RX     Read Input Regs  unit=4  addr=7012  qty=24  [CRC OK]
13:27:26.568    COM15                          RAW: 04 04 1B 64 00 18 B7 6E
13:27:26.601    COM15                   RX     Read Input Regs  unit=4  addr=12295  qty=22023  [CRC FAIL calc=35EB recv=0000]
13:27:26.601    COM15                          RAW: 04 04 30 07 56 07 23 00 00 00 00 00 00 07 57 07 14 00 00 00 00 00 00 07 57 03 C3 00 00 00 00 00
13:27:26.627    COM15                   RX     FC07  unit=0  [CRC FAIL calc=2485 recv=B464]
13:27:26.627    COM15                          RAW: 00 07 41 07 1F 00 00 00 00 00 00 07 5D 03 B8 00 00 00 00 64 B4
13:27:26.659    COM15                   RX     Read Input Regs  unit=5  addr=7012  qty=24  [CRC OK]
13:27:26.659    COM15                          RAW: 05 04 1B 64 00 18 B6 BF
13:27:26.754    COM15                   RX     Read Input Regs  unit=5  addr=12295  qty=23047  [CRC FAIL calc=97B6 recv=8CB6]
13:27:26.754    COM15                          RAW: 05 04 30 07 5A 07 48 00 00 00 00 00 00 07 48 07 3C 00 00 00 00 00 00 07 53 03 B8 00 00 00 00 00 00 07 4D 07 34 00 00 00 00 00 00 07 58 03 B4 00 00 00 00 59 20 06 04 1B 64 00 18 B6 8C
13:27:26.786    COM15                   RX     Read Input Regs  unit=6  addr=12295  qty=27395  [CRC FAIL calc=C6FC recv=0000]
13:27:26.786    COM15                          RAW: 06 04 30 07 6B 03 B6 07 57 00 00 00 00 07 29 07 51 07 39 00 00 00 00 07 56 03 B4 00 00 00 00 00
13:27:26.833    COM15                   RX     FC07  unit=0  [CRC FAIL calc=131E recv=5DB7]
13:27:26.833    COM15                          RAW: 00 07 45 07 3D 00 00 00 00 00 00 07 65 03 B9 00 00 00 00 74 9F 07 04 1B 64 00 18 B7 5D
13:27:26.897    COM15                   RX     Read Input Regs  unit=7  addr=12295  qty=13831  [CRC OK]
13:27:26.897    COM15                          RAW: 07 04 30 07 36 07 44 00 00 00 00 00 00 07 08 06 B4 00 00 00 00 00 00 07 54 07 58 00 00 00 00 00 00 03 A9 03 B2 00 00 00 00 00 00 03 B6 00 00 00 00 00 00 AA 61
13:27:34.456    COM15                   RX     Read Input Regs  unit=1  addr=5000  qty=11  [CRC OK]
13:27:34.456    COM15                          RAW: 01 04 13 88 00 0B 35 63
13:27:34.503    COM15                   RX     Read Input Regs  unit=1  addr=5643  qty=47104  [CRC FAIL calc=BC74 recv=A774]
13:27:34.504    COM15                          RAW: 01 04 16 0B B8 00 02 10 8B 23 39 00 05 09 31 00 00 01 FB 91 41 00 03 29 CA 0B BA 01 04 13 98 00 08 74 A7
13:27:34.551    COM15                   RX     Read Input Regs  unit=1  addr=4259  qty=30976  [CRC FAIL calc=4B35 recv=5035]
13:27:34.551    COM15                          RAW: 01 04 10 A3 79 00 03 20 62 20 58 20 53 06 57 06 57 06 59 59 9E 02 04 13 88 00 0B 35 50
13:27:34.583    COM15                   RX     Read Input Regs  unit=2  addr=5643  qty=47104  [CRC OK]
13:27:34.583    COM15                          RAW: 02 04 16 0B B8 00 02 0F D1 F2 28 00 04 09 43 00 00 01 E4 63 85 00 03 29 89 7C 9B
13:27:34.631    COM15                   RX     Read Input Regs  unit=1  addr=5030  qty=6  [CRC FAIL calc=93EB recv=2CAB]
13:27:34.631    COM15                          RAW: 01 04 13 A6 00 06 94 AF 01 04 0C 90 82 00 03 DB 07 FF FF 03 E7 01 F5 AB 2C
13:27:34.663    COM15                   RX     Read Input Regs  unit=3  addr=5000  qty=11  [CRC OK]
13:27:34.663    COM15                          RAW: 03 04 13 88 00 0B 34 81
13:27:34.709    COM15                   RX     Read Input Regs  unit=3  addr=5643  qty=47104  [CRC FAIL calc=8F74 recv=9474]
13:27:34.710    COM15                          RAW: 03 04 16 0B B8 00 02 0F 28 BA C8 00 04 09 36 00 00 01 E9 3A D6 00 03 29 B3 03 66 02 04 13 98 00 08 74 94
13:27:34.789    COM15                   RX     Read Input Regs  unit=2  addr=4210  qty=22272  [CRC FAIL calc=0CE6 recv=2FC5]
13:27:34.789    COM15                          RAW: 02 04 10 72 57 00 03 20 78 20 68 20 59 06 05 06 03 06 01 5D 35 04 04 13 88 00 0B 35 36 04 04 16 0B B8 00 02 0E 48 75 40 00 04 09 3E 00 00 01 E2 07 9F 00 03 29 42 C5 2F
13:27:34.852    COM15                   RX     Read Input Regs  unit=1  addr=5080  qty=3  [CRC FAIL calc=8C44 recv=E734]
13:27:34.852    COM15                          RAW: 01 04 13 D8 00 03 34 B4 01 04 06 00 01 00 02 FF FF FD 23 05 04 13 88 00 0B 34 E7
13:27:34.883    COM15                   RX     Read Input Regs  unit=5  addr=5643  qty=47104  [CRC OK]
13:27:34.883    COM15                          RAW: 05 04 16 0B B8 00 02 0E 6F 7E BF 00 04 09 3E 00 00 01 DF 0C 80 00 03 29 AD FB AC
13:27:34.915    COM15                   RX     Read Input Regs  unit=3  addr=5016  qty=8  [CRC OK]
13:27:34.915    COM15                          RAW: 03 04 13 98 00 08 75 45
13:27:34.963    COM15                   RX     Read Input Regs  unit=3  addr=4164  qty=17664  [CRC FAIL calc=CF34 recv=D434]
13:27:34.963    COM15                          RAW: 03 04 10 44 45 00 03 20 98 20 8E 20 84 05 B7 05 B5 05 B1 05 17 06 04 13 88 00 0B 34 D4
13:27:34.995    COM15                   RX     Read Input Regs  unit=6  addr=5643  qty=47104  [CRC OK]
13:27:34.995    COM15                          RAW: 06 04 16 0B B8 00 02 10 8D 13 EA 00 05 09 36 00 00 01 E1 7B 3D 00 03 29 B6 22 68
13:27:35.090    COM15                   RX     Read Input Regs  unit=2  addr=5030  qty=6  [CRC FAIL calc=278F recv=14D3]
13:27:35.090    COM15                          RAW: 02 04 13 A6 00 06 94 9C 02 04 0C 62 CD 00 03 DC A2 FF FF 03 E7 01 F5 83 D2 07 04 13 88 00 0B 35 05 07 04 16 0B B8 00 02 0C 65 78 53 00 03 08 D8 00 00 01 D2 98 D3 00 02 29 CC D3 14
13:27:35.184    COM15                   RX     Read Input Regs  unit=4  addr=5016  qty=8  [CRC FAIL calc=6E03 recv=5C15]
13:27:35.184    COM15                          RAW: 04 04 13 98 00 08 74 F2 04 04 10 10 76 00 03 20 78 20 65 20 58 05 63 05 66 05 65 CC C7 01 04 13 E4 00 08 B5 7F 01 04 10 FF FF FF FF FF FF FF FF FF FF FF FF FF FF FF FF 15 5C
13:27:35.216    COM15                   RX     Read Input Regs  unit=5  addr=5016  qty=8  [CRC OK]
13:27:35.216    COM15                          RAW: 05 04 13 98 00 08 75 23
13:27:35.280    COM15                   RX     Read Input Regs  unit=5  addr=4118  qty=48896  [CRC FAIL calc=44C4 recv=00CE]
13:27:35.280    COM15                          RAW: 05 04 10 16 BF 00 03 20 A5 20 84 20 7F 05 65 05 65 05 65 03 F6 03 04 13 A6 00 06 95 4D 03 04 0C 3A 27 00 03 DE 58 FF FF 03 E7 01 F5 CE 00
13:27:35.312    COM15                   RX     Read Input Regs  unit=6  addr=5016  qty=8  [CRC OK]
13:27:35.312    COM15                          RAW: 06 04 13 98 00 08 75 10
13:27:35.391    COM15                   RX     Read Input Regs  unit=6  addr=4235  qty=62720  [CRC FAIL calc=4972 recv=C174]
13:27:35.391    COM15                          RAW: 06 04 10 8B F5 00 03 20 70 20 70 20 69 06 31 06 2E 06 31 9D D4 02 04 13 D8 00 03 34 87 02 04 06 00 01 00 02 FF FF E9 D3 07 04 13 98 00 08 74 C1
13:27:35.423    COM15                   RX     Read Input Regs  unit=7  addr=4260  qty=46336  [CRC OK]
13:27:35.423    COM15                          RAW: 07 04 10 A4 B5 00 02 20 6F 20 58 20 48 04 9D 04 A1 04 A1 B5 C7
13:27:35.486    COM15                   RX     Read Input Regs  unit=4  addr=5030  qty=6  [CRC FAIL calc=DECE recv=3E84]
13:27:35.486    COM15                          RAW: 04 04 13 A6 00 06 94 FA 04 04 0C 06 F8 00 03 E0 22 FF FF 03 E7 01 F5 18 DA 01 04 14 1B 00 04 84 3E
13:27:35.551    COM15                   RX     Read Input Regs  unit=1  addr=2067  qty=38911  [CRC FAIL calc=73F5 recv=37FF]
13:27:35.551    COM15                          RAW: 01 04 08 13 97 FF FF 00 00 00 00 83 C6 05 04 13 A6 00 06 95 2B 05 04 0C 0B D9 00 03 E0 06 FF FF 03 E7 01 F5 FF 37
13:27:35.630    COM15                   RX     Read Input Regs  unit=3  addr=5080  qty=3  [CRC FAIL calc=279B recv=5C91]
13:27:35.630    COM15                          RAW: 03 04 13 D8 00 03 35 56 03 04 06 00 01 00 02 FF FF E4 43 06 04 13 A6 00 06 95 18 06 04 0C 7A 7E 00 03 DB 7D FF FF 03 E7 01 F5 91 5C
13:27:35.662    COM15                   RX     Read Input Regs  unit=2  addr=5092  qty=8  [CRC OK]
13:27:35.662    COM15                          RAW: 02 04 13 E4 00 08 B5 4C
13:27:35.726    COM15                   RX     Read Input Regs  unit=2  addr=4351  qty=65535  [CRC FAIL calc=CC36 recv=883C]
13:27:35.726    COM15                          RAW: 02 04 10 FF FF FF FF FF FF FF FF FF FF FF FF FF FF FF FF 51 18 07 04 13 A6 00 06 94 C9 07 04 0C 97 1A 00 02 E4 BB FF FF 03 E7 01 F5 3C 88
13:27:35.789    COM15                   RX     Read Input Regs  unit=4  addr=5080  qty=3  [CRC FAIL calc=50C7 recv=3BB7]
13:27:35.789    COM15                          RAW: 04 04 13 D8 00 03 34 E1 04 04 06 00 01 00 02 FF FF C2 73 01 04 1B 64 00 18 B7 3B
13:27:35.821    COM15                   RX     Read Input Regs  unit=1  addr=12295  qty=23559  [CRC FAIL calc=1A2D recv=0000]
13:27:35.821    COM15                          RAW: 01 04 30 07 5C 07 5E 07 44 00 00 00 00 07 3D 07 40 00 00 00 00 00 00 07 2D 07 3E 00 00 00 00 00
13:27:35.885    COM15                   RX     FC07  unit=0  [CRC FAIL calc=2BBE recv=E3CF]
13:27:35.885    COM15                          RAW: 00 07 28 07 32 00 00 00 00 00 00 07 60 07 53 00 00 00 00 DA 46 05 04 13 D8 00 03 35 30 05 04 06 00 01 00 02 FF FF CF E3
13:27:35.917    COM15                   RX     Read Input Regs  unit=3  addr=5092  qty=8  [CRC OK]
13:27:35.917    COM15                          RAW: 03 04 13 E4 00 08 B4 9D
13:27:36.012    COM15                   RX     Read Input Regs  unit=3  addr=4351  qty=65535  [CRC FAIL calc=0160 recv=828C]
13:27:36.012    COM15                          RAW: 03 04 10 FF FF FF FF FF FF FF FF FF FF FF FF FF FF FF FF 6C E4 06 04 13 D8 00 03 35 03 06 04 06 00 01 00 02 FF FF DB 13 02 04 14 1B 00 04 84 0D 02 04 08 13 97 FF FF 00 00 00 00 8C 82
13:27:36.075    COM15                   RX     Read Input Regs  unit=7  addr=5080  qty=3  [CRC FAIL calc=41C5 recv=2AB5]
13:27:36.075    COM15                          RAW: 07 04 13 D8 00 03 34 D2 07 04 06 00 01 00 02 FF FF D6 83 04 04 13 E4 00 08 B5 2A
13:27:36.123    COM15                   RX     Read Input Regs  unit=4  addr=4351  qty=65535  [CRC FAIL calc=7835 recv=6335]
13:27:36.123    COM15                          RAW: 04 04 10 FF FF FF FF FF FF FF FF FF FF FF FF FF FF FF FF D9 90 01 04 13 88 00 0B 35 63
13:27:36.265    COM15                   RX     Read Input Regs  unit=1  addr=5643  qty=47104  [CRC FAIL calc=ED68 recv=C8B4]
13:27:36.265    COM15                          RAW: 01 04 16 0B B8 00 02 10 8C 23 39 00 05 09 31 00 00 01 FB 8B 9A 00 03 29 B1 9F 81 05 04 13 E4 00 08 B4 FB 05 04 10 FF FF FF FF FF FF FF FF FF FF FF FF FF FF FF FF E4 6C 03 04 14 1B 00 04 85 DC 03 04 08 13 97 FF FF 00 00 00 00 88 7E 06 04 13 E4 00 08 B4 C8
13:27:36.312    COM15                   RX     Read Input Regs  unit=6  addr=4351  qty=65535  [CRC FAIL calc=13B7 recv=08B7]
13:27:36.312    COM15                          RAW: 06 04 10 FF FF FF FF FF FF FF FF FF FF FF FF FF FF FF FF A0 28 02 04 1B 64 00 18 B7 08
13:27:36.376    COM15                   RX     Read Input Regs  unit=2  addr=12295  qty=19719  [CRC OK]
13:27:36.376    COM15                          RAW: 02 04 30 07 4D 07 4C 00 00 00 00 00 00 07 22 07 1D 00 00 00 00 00 00 07 4F 07 43 00 00 00 00 00 00 07 24 07 20 00 00 00 00 00 00 07 2F 07 24 00 00 00 00 35 F1
13:27:36.424    COM15                   RX     Read Input Regs  unit=7  addr=5092  qty=8  [CRC FAIL calc=F0B9 recv=D49D]
13:27:36.424    COM15                          RAW: 07 04 13 E4 00 08 B5 19 07 04 10 FF FF FF FF FF FF FF FF FF FF FF FF FF FF FF FF 9D D4
13:27:36.487    COM15                   RX     Read Input Regs  unit=4  addr=5147  qty=4  [CRC FAIL calc=9850 recv=A774]
13:27:36.487    COM15                          RAW: 04 04 14 1B 00 04 84 6B 04 04 08 13 97 FF FF 00 00 00 00 92 0A 01 04 13 98 00 08 74 A7
13:27:36.550    COM15                   RX     Read Input Regs  unit=1  addr=4254  qty=39936  [CRC FAIL calc=36B4 recv=F696]
13:27:36.550    COM15                          RAW: 01 04 10 9E 9C 00 03 20 60 20 57 20 51 06 4E 06 4E 06 50 C9 DF 05 04 14 1B 00 04 85 BA 05 04 08 13 97 FF FF 00 00 00 00 96 F6
13:27:36.582    COM15                   RX     Read Input Regs  unit=3  addr=7012  qty=24  [CRC OK]
13:27:36.582    COM15                          RAW: 03 04 1B 64 00 18 B6 D9
13:27:36.614    COM15                   RX     Read Input Regs  unit=3  addr=12295  qty=13063  [CRC FAIL calc=CE32 recv=0000]
13:27:36.614    COM15                          RAW: 03 04 30 07 33 07 30 00 00 00 00 00 00 07 19 07 27 00 00 00 00 00 00 07 28 03 B5 00 00 00 00 00
13:27:36.693    COM15                   RX     FC07  unit=0  [CRC FAIL calc=7BE7 recv=5035]
13:27:36.694    COM15                          RAW: 00 07 33 07 1B 00 00 00 00 00 00 07 3E 03 A7 00 00 00 00 89 53 06 04 14 1B 00 04 85 89 06 04 08 13 97 FF FF 00 00 00 00 99 B2 02 04 13 88 00 0B 35 50
13:27:36.773    COM15                   RX     Read Input Regs  unit=2  addr=5643  qty=47104  [CRC FAIL calc=8EBF recv=4E9D]
13:27:36.773    COM15                          RAW: 02 04 16 0B B8 00 02 0F D2 F2 28 00 04 09 43 00 00 01 E4 5E B0 00 03 29 99 05 4E 07 04 14 1B 00 04 84 58 07 04 08 13 97 FF FF 00 00 00 00 9D 4E
13:27:36.804    COM15                   RX     Read Input Regs  unit=4  addr=7012  qty=24  [CRC OK]
13:27:36.804    COM15                          RAW: 04 04 1B 64 00 18 B7 6E
13:27:36.852    COM15                   RX     Read Input Regs  unit=4  addr=12295  qty=8199  [CRC OK]
13:27:36.852    COM15                          RAW: 04 04 30 07 20 07 01 00 00 00 00 00 00 07 1E 06 EC 00 00 00 00 00 00 07 1C 03 A6 00 00 00 00 00 00 07 14 07 03 00 00 00 00 00 00 07 23 03 9D 00 00 00 00 ED 2A
13:27:36.916    COM15                   RX     Read Input Regs  unit=1  addr=5030  qty=6  [CRC FAIL calc=5FFC recv=BFB6]
13:27:36.916    COM15                          RAW: 01 04 13 A6 00 06 94 AF 01 04 0C 88 32 00 03 DA 7C FF FF 03 E7 01 F5 D7 05 05 04 1B 64 00 18 B6 BF
13:27:36.979    COM15                   RX     Read Input Regs  unit=5  addr=12295  qty=8967  [CRC OK]
13:27:36.979    COM15                          RAW: 05 04 30 07 23 07 25 00 00 00 00 00 00 07 15 07 1D 00 00 00 00 00 00 07 17 03 9B 00 00 00 00 00 00 07 09 07 02 00 00 00 00 00 00 07 1C 03 98 00 00 00 00 9E 98
13:27:37.011    COM15                   RX     Read Input Regs  unit=3  addr=5000  qty=11  [CRC OK]
13:27:37.011    COM15                          RAW: 03 04 13 88 00 0B 34 81
13:27:37.058    COM15                   RX     Read Input Regs  unit=3  addr=5643  qty=47104  [CRC FAIL calc=97B6 recv=8CB6]
13:27:37.058    COM15                          RAW: 03 04 16 0B B8 00 02 0F 2A BA C8 00 04 09 36 00 00 01 E9 37 76 00 03 29 7B 22 94 06 04 1B 64 00 18 B6 8C
13:27:37.122    COM15                   RX     Read Input Regs  unit=6  addr=12295  qty=8963  [CRC OK]
13:27:37.122    COM15                          RAW: 06 04 30 07 23 03 92 07 18 00 00 00 00 07 0E 07 1F 07 19 00 00 00 00 07 22 03 9B 00 00 00 00 00 00 07 15 07 1F 00 00 00 00 00 00 07 2D 03 9D 00 00 00 00 8D 79
13:27:37.170    COM15                   RX     Read Input Regs  unit=2  addr=5016  qty=8  [CRC FAIL calc=2274 recv=0650]
13:27:37.170    COM15                          RAW: 02 04 13 98 00 08 74 94 02 04 10 6D 33 00 03 20 78 20 68 20 59 05 FD 05 FB 05 F9 50 06
13:27:37.201    COM15                   RX     Read Input Regs  unit=7  addr=7012  qty=24  [CRC OK]
13:27:37.201    COM15                          RAW: 07 04 1B 64 00 18 B7 5D
13:27:37.248    COM15                   RX     Read Input Regs  unit=7  addr=12295  qty=6151  [CRC OK]
13:27:37.248    COM15                          RAW: 07 04 30 07 18 07 21 00 00 00 00 00 00 06 F8 06 AE 00 00 00 00 00 00 07 24 07 26 00 00 00 00 00 00 03 91 03 9B 00 00 00 00 00 00 03 98 00 00 00 00 00 00 98 2A
13:27:37.280    COM15                   RX     Read Input Regs  unit=4  addr=5000  qty=11  [CRC OK]
13:27:37.280    COM15                          RAW: 04 04 13 88 00 0B 35 36
13:27:37.343    COM15                   RX     Read Input Regs  unit=4  addr=5643  qty=47104  [CRC FAIL calc=A387 recv=23FD]
13:27:37.343    COM15                          RAW: 04 04 16 0B B8 00 02 0E 4A 75 40 00 04 09 3E 00 00 01 E2 04 C3 00 03 29 70 35 A4 01 04 13 D8 00 03 34 B4 01 04 06 00 01 00 02 FF FF FD 23
13:27:37.375    COM15                   RX     Read Input Regs  unit=5  addr=5000  qty=11  [CRC OK]
13:27:37.375    COM15                          RAW: 05 04 13 88 00 0B 34 E7
13:27:37.423    COM15                   RX     Read Input Regs  unit=5  addr=5643  qty=47104  [CRC FAIL calc=5E75 recv=4575]
13:27:37.423    COM15                          RAW: 05 04 16 0B B8 00 02 0E 71 7E C0 00 04 09 3E 00 00 01 DF 09 94 00 03 29 C2 DD 50 03 04 13 98 00 08 75 45
13:27:37.454    COM15                   RX     Read Input Regs  unit=3  addr=4159  qty=31744  [CRC OK]
13:27:37.454    COM15                          RAW: 03 04 10 3F 7C 00 03 20 92 20 89 20 81 05 B0 05 AE 05 AB 88 32
13:27:37.486    COM15                   RX     Read Input Regs  unit=6  addr=5000  qty=11  [CRC OK]
13:27:37.486    COM15                          RAW: 06 04 13 88 00 0B 34 D4
13:27:37.550    COM15                   RX     Read Input Regs  unit=6  addr=5643  qty=47104  [CRC FAIL calc=307D recv=7477]
13:27:37.550    COM15                          RAW: 06 04 16 0B B8 00 02 10 8F 13 EA 00 05 09 36 00 00 01 E1 78 1D 00 03 29 DD 43 13 02 04 13 A6 00 06 94 9C 02 04 0C 5C 1C 00 03 DC 43 FF FF 03 E7 01 F5 77 74
13:27:37.582    COM15                   RX     Read Input Regs  unit=7  addr=5000  qty=11  [CRC OK]
13:27:37.582    COM15                          RAW: 07 04 13 88 00 0B 35 05
13:27:37.629    COM15                   RX     Read Input Regs  unit=7  addr=5643  qty=47104  [CRC FAIL calc=E974 recv=F274]
13:27:37.629    COM15                          RAW: 07 04 16 0B B8 00 02 0C 66 78 53 00 03 08 D8 00 00 01 D2 95 C6 00 02 29 F1 EE EB 04 04 13 98 00 08 74 F2
13:27:37.677    COM15                   RX     Read Input Regs  unit=4  addr=4109  qty=41216  [CRC FAIL calc=64B5 recv=7FB5]
13:27:37.677    COM15                          RAW: 04 04 10 0D A1 00 03 20 78 20 61 20 57 05 5C 05 60 05 5F 2B 17 01 04 13 E4 00 08 B5 7F
13:27:37.709    COM15                   RX     Read Input Regs  unit=1  addr=4351  qty=65535  [CRC OK]
13:27:37.709    COM15                          RAW: 01 04 10 FF FF FF FF FF FF FF FF FF FF FF FF FF FF FF FF 15 5C
13:27:37.757    COM15                   RX     Read Input Regs  unit=5  addr=5016  qty=8  [CRC FAIL calc=DAE9 recv=FECD]
13:27:37.757    COM15                          RAW: 05 04 13 98 00 08 75 23 05 04 10 14 77 00 03 20 A0 20 83 20 7E 05 61 05 60 05 62 CD FE
13:27:37.821    COM15                   RX     Read Input Regs  unit=3  addr=5030  qty=6  [CRC FAIL calc=F03F recv=1075]
13:27:37.821    COM15                          RAW: 03 04 13 A6 00 06 95 4D 03 04 0C 35 57 00 03 DD DA FF FF 03 E7 01 F5 92 C8 06 04 13 98 00 08 75 10
13:27:37.884    COM15                   RX     Read Input Regs  unit=6  addr=4232  qty=36352  [CRC FAIL calc=5393 recv=D3E9]
13:27:37.884    COM15                          RAW: 06 04 10 88 8E 00 03 20 70 20 70 20 68 06 2C 06 2A 06 2B DA CE 02 04 13 D8 00 03 34 87 02 04 06 00 01 00 02 FF FF E9 D3
13:27:37.932    COM15                   RX     Read Input Regs  unit=7  addr=5016  qty=8  [CRC FAIL calc=4477 recv=6053]
13:27:37.932    COM15                          RAW: 07 04 13 98 00 08 74 C1 07 04 10 A2 84 00 02 20 6A 20 58 20 48 04 9A 04 9E 04 9D 53 60
13:27:37.979    COM15                   RX     Read Input Regs  unit=4  addr=5030  qty=6  [CRC FAIL calc=C178 recv=7E38]
13:27:37.980    COM15                          RAW: 04 04 13 A6 00 06 94 FA 04 04 0C 02 BC 00 03 DF C1 FF FF 03 E7 01 F5 38 7E
13:27:38.043    COM15                   RX     Read Input Regs  unit=1  addr=5147  qty=4  [CRC FAIL calc=14B1 recv=2B95]
13:27:38.043    COM15                          RAW: 01 04 14 1B 00 04 84 3E 01 04 08 13 97 FF FF 00 00 00 00 83 C6 05 04 13 A6 00 06 95 2B
13:27:38.122    COM15                   RX     Read Input Regs  unit=5  addr=3079  qty=37888  [CRC FAIL calc=9093 recv=1895]
13:27:38.123    COM15                          RAW: 05 04 0C 07 94 00 03 DF AD FF FF 03 E7 01 F5 D8 D4 03 04 13 D8 00 03 35 56 03 04 06 00 01 00 02 FF FF E4 43 06 04 13 A6 00 06 95 18
13:27:38.170    COM15                   RX     Read Input Regs  unit=6  addr=3190  qty=14080  [CRC FAIL calc=57B5 recv=4CB5]
13:27:38.170    COM15                          RAW: 06 04 0C 76 37 00 03 DB 10 FF FF 03 E7 01 F5 46 D7 02 04 13 E4 00 08 B5 4C
13:27:38.218    COM15                   RX     Read Input Regs  unit=2  addr=4351  qty=65535  [CRC FAIL calc=D294 recv=C994]
13:27:38.218    COM15                          RAW: 02 04 10 FF FF FF FF FF FF FF FF FF FF FF FF FF FF FF FF 51 18 07 04 13 A6 00 06 94 C9
13:27:38.297    COM15                   RX     Read Input Regs  unit=7  addr=3221  qty=12800  [CRC FAIL calc=B3B1 recv=3BB7]
13:27:38.297    COM15                          RAW: 07 04 0C 95 32 00 02 E4 57 FF FF 03 E7 01 F5 69 21 04 04 13 D8 00 03 34 E1 04 04 06 00 01 00 02 FF FF C2 73 01 04 1B 64 00 18 B7 3B
13:27:38.330    COM15                   RX     Read Input Regs  unit=1  addr=12295  qty=19207  [CRC FAIL calc=FB9C recv=0000]
13:27:38.330    COM15                          RAW: 01 04 30 07 4B 07 4A 07 33 00 00 00 00 07 32 07 33 00 00 00 00 00 00 07 26 07 34 00 00 00 00 00
13:27:38.362    COM15                   RX     FC07  unit=0  [CRC FAIL calc=EC37 recv=C2A3]
13:27:38.362    COM15                          RAW: 00 07 28 07 2F 00 00 00 00 00 00 07 60 07 54 00 00 00 00 A3 C2
13:27:38.425    COM15                   RX     Read Input Regs  unit=5  addr=5080  qty=3  [CRC FAIL calc=F6C4 recv=9DB4]
13:27:38.426    COM15                          RAW: 05 04 13 D8 00 03 35 30 05 04 06 00 01 00 02 FF FF CF E3 03 04 13 E4 00 08 B4 9D
13:27:38.489    COM15                   RX     Read Input Regs  unit=3  addr=4351  qty=65535  [CRC FAIL calc=93A1 recv=13DB]
13:27:38.489    COM15                          RAW: 03 04 10 FF FF FF FF FF FF FF FF FF FF FF FF FF FF FF FF 6C E4 06 04 13 D8 00 03 35 03 06 04 06 00 01 00 02 FF FF DB 13
13:27:38.585    COM15                   RX     Read Input Regs  unit=2  addr=5147  qty=4  [CRC FAIL calc=AE83 recv=2AB5]
13:27:38.585    COM15                          RAW: 02 04 14 1B 00 04 84 0D 02 04 08 13 97 FF FF 00 00 00 00 8C 82 07 04 13 D8 00 03 34 D2 07 04 06 00 01 00 02 FF FF D6 83 04 04 13 E4 00 08 B5 2A
13:27:38.616    COM15                   RX     Read Input Regs  unit=4  addr=4351  qty=65535  [CRC OK]
13:27:38.616    COM15                          RAW: 04 04 10 FF FF FF FF FF FF FF FF FF FF FF FF FF FF FF FF D9 90
13:27:38.663    COM15                   RX     Read Input Regs  unit=5  addr=5092  qty=8  [CRC FAIL calc=48C0 recv=6CE4]
13:27:38.663    COM15                          RAW: 05 04 13 E4 00 08 B4 FB 05 04 10 FF FF FF FF FF FF FF FF FF FF FF FF FF FF FF FF E4 6C
13:27:38.728    COM15                   RX     Read Input Regs  unit=3  addr=5147  qty=4  [CRC FAIL calc=F790 recv=C8B4]
13:27:38.728    COM15                          RAW: 03 04 14 1B 00 04 85 DC 03 04 08 13 97 FF FF 00 00 00 00 88 7E 06 04 13 E4 00 08 B4 C8
13:27:38.775    COM15                   RX     Read Input Regs  unit=6  addr=4351  qty=65535  [CRC FAIL calc=13B7 recv=08B7]
13:27:38.775    COM15                          RAW: 06 04 10 FF FF FF FF FF FF FF FF FF FF FF FF FF FF FF FF A0 28 02 04 1B 64 00 18 B7 08
13:27:38.807    COM15                   RX     Read Input Regs  unit=2  addr=12295  qty=16391  [CRC FAIL calc=459C recv=0000]
13:27:38.807    COM15                          RAW: 02 04 30 07 40 07 3F 00 00 00 00 00 00 07 20 07 16 00 00 00 00 00 00 07 3A 07 2E 00 00 00 00 00
13:27:38.854    COM15                   RX     FC07  unit=0  [CRC FAIL calc=9E65 recv=19B5]
13:27:38.855    COM15                          RAW: 00 07 24 07 1E 00 00 00 00 00 00 07 32 07 26 00 00 00 00 EF 1E 07 04 13 E4 00 08 B5 19
13:27:38.918    COM15                   RX     Read Input Regs  unit=7  addr=4351  qty=65535  [CRC FAIL calc=CAB0 recv=0A92]
13:27:38.918    COM15                          RAW: 07 04 10 FF FF FF FF FF FF FF FF FF FF FF FF FF FF FF FF 9D D4 04 04 14 1B 00 04 84 6B 04 04 08 13 97 FF FF 00 00 00 00 92 0A
13:27:38.982    COM15                   RX     Read Input Regs  unit=5  addr=5147  qty=4  [CRC FAIL calc=E692 recv=D9B6]
13:27:38.982    COM15                          RAW: 05 04 14 1B 00 04 85 BA 05 04 08 13 97 FF FF 00 00 00 00 96 F6 03 04 1B 64 00 18 B6 D9
13:27:39.014    COM15                   RX     Read Input Regs  unit=3  addr=12295  qty=10503  [CRC FAIL calc=F2B1 recv=0000]
13:27:39.014    COM15                          RAW: 03 04 30 07 29 07 27 00 00 00 00 00 00 07 0E 07 1D 00 00 00 00 00 00 07 2C 03 B4 00 00 00 00 00
13:27:39.045    COM15                   RX     FC07  unit=0  [CRC FAIL calc=0893 recv=C120]
13:27:39.045    COM15                          RAW: 00 07 32 07 1B 00 00 00 00 00 00 07 3A 03 A4 00 00 00 00 20 C1
13:27:39.140    COM15                   RX     Read Input Regs  unit=6  addr=5147  qty=4  [CRC FAIL calc=BDE0 recv=6EB7]
13:27:39.140    COM15                          RAW: 06 04 14 1B 00 04 85 89 06 04 08 13 97 FF FF 00 00 00 00 99 B2 07 04 14 1B 00 04 84 58 07 04 08 13 97 FF FF 00 00 00 00 9D 4E 04 04 1B 64 00 18 B7 6E
13:27:39.203    COM15                   RX     Read Input Regs  unit=4  addr=12295  qty=7686  [CRC OK]
13:27:39.203    COM15                          RAW: 04 04 30 07 1E 06 FE 00 00 00 00 00 00 07 15 06 E2 00 00 00 00 00 00 07 0A 03 9E 00 00 00 00 00 00 07 15 07 02 00 00 00 00 00 00 07 19 03 97 00 00 00 00 91 F0
13:27:39.234    COM15                   RX     Read Input Regs  unit=5  addr=7012  qty=24  [CRC OK]
13:27:39.234    COM15                          RAW: 05 04 1B 64 00 18 B6 BF
13:27:39.329    COM15                   RX     Read Input Regs  unit=5  addr=12295  qty=6407  [CRC FAIL calc=97B6 recv=8CB6]
13:27:39.329    COM15                          RAW: 05 04 30 07 19 07 1A 00 00 00 00 00 00 07 13 07 1A 00 00 00 00 00 00 07 14 03 98 00 00 00 00 00 00 07 07 07 00 00 00 00 00 00 00 07 14 03 93 00 00 00 00 9D 8B 06 04 1B 64 00 18 B6 8C
13:27:39.377    COM15                   RX     Read Input Regs  unit=6  addr=12295  qty=6915  [CRC OK]
13:27:39.377    COM15                          RAW: 06 04 30 07 1B 03 8D 07 12 00 00 00 00 07 0A 07 1A 07 14 00 00 00 00 07 1B 03 97 00 00 00 00 00 00 07 17 07 21 00 00 00 00 00 00 07 25 03 98 00 00 00 00 B1 5A
13:27:39.408    COM15                   RX     Read Input Regs  unit=7  addr=7012  qty=24  [CRC OK]
13:27:39.408    COM15                          RAW: 07 04 1B 64 00 18 B7 5D
13:27:39.440    COM15                   RX     Read Input Regs  unit=7  addr=12295  qty=3847  [CRC FAIL calc=60C2 recv=0000]
13:27:39.440    COM15                          RAW: 07 04 30 07 0F 07 19 00 00 00 00 00 00 07 04 06 B3 00 00 00 00 00 00 07 1F 07 21 00 00 00 00 00
13:27:39.472    COM15                   RX     Read Holding Regs  unit=0  addr=35075  qty=37632  [CRC FAIL calc=9AA9 recv=F8F6]
13:27:39.472    COM15                          RAW: 00 03 89 03 93 00 00 00 00 00 00 03 98 00 00 00 00 00 00 F6 F8
13:27:47.348    COM15                   RX     Read Input Regs  unit=1  addr=5000  qty=11  [CRC OK]
13:27:47.348    COM15                          RAW: 01 04 13 88 00 0B 35 63
13:27:47.376    COM15                   RX     Read Input Regs  unit=1  addr=5643  qty=47104  [CRC OK]
13:27:47.376    COM15                          RAW: 01 04 16 0B B8 00 02 10 93 23 3A 00 05 09 31 00 00 01 FB 84 0A 00 03 29 86 65 82
13:27:47.401    COM15                   RX     Read Input Regs  unit=1  addr=5016  qty=8  [CRC OK]
13:27:47.401    COM15                          RAW: 01 04 13 98 00 08 74 A7
13:27:47.427    COM15                   RX     Read Input Regs  unit=1  addr=4250  qty=2560  [CRC OK]
13:27:47.427    COM15                          RAW: 01 04 10 9A 0A 00 03 20 60 20 58 20 52 06 46 06 47 06 48 9E 4B
13:27:47.444    COM15                   RX     Read Input Regs  unit=1  addr=5030  qty=6  [CRC OK]
13:27:47.444    COM15                          RAW: 01 04 13 A6 00 06 94 AF
13:27:47.470    COM15                   RX     Read Input Regs  unit=1  addr=3203  qty=16896  [CRC OK]
13:27:47.470    COM15                          RAW: 01 04 0C 83 42 00 03 DA 7D FF FF 03 E7 01 F5 88 DF
13:27:47.494    COM15                   RX     Read Input Regs  unit=1  addr=5080  qty=3  [CRC OK]
13:27:47.494    COM15                          RAW: 01 04 13 D8 00 03 34 B4
13:27:47.511    COM15                   RX     Read Input Regs  unit=1  addr=1536  qty=256  [CRC OK]
13:27:47.511    COM15                          RAW: 01 04 06 00 01 00 02 FF FF FD 23
13:27:47.533    COM15                   RX     Read Input Regs  unit=1  addr=5092  qty=8  [CRC OK]
13:27:47.533    COM15                          RAW: 01 04 13 E4 00 08 B5 7F
13:27:47.561    COM15                   RX     Read Input Regs  unit=1  addr=4351  qty=65535  [CRC OK]
13:27:47.561    COM15                          RAW: 01 04 10 FF FF FF FF FF FF FF FF FF FF FF FF FF FF FF FF 15 5C
13:27:47.584    COM15                   RX     Read Input Regs  unit=1  addr=5147  qty=4  [CRC OK]
13:27:47.584    COM15                          RAW: 01 04 14 1B 00 04 84 3E
13:27:47.594    COM15                   RX     Read Input Regs  unit=1  addr=2067  qty=38911  [CRC OK]
13:27:47.594    COM15                          RAW: 01 04 08 13 97 FF FF 00 00 00 00 83 C6
13:27:47.618    COM15                   RX     Read Input Regs  unit=1  addr=7012  qty=24  [CRC OK]
13:27:47.618    COM15                          RAW: 01 04 1B 64 00 18 B7 3B
13:27:47.661    COM15                   RX     Read Input Regs  unit=1  addr=12295  qty=21255  [CRC FAIL calc=C13D recv=0000]
13:27:47.661    COM15                          RAW: 01 04 30 07 53 07 4F 07 40 00 00 00 00 07 2F 07 2E 00 00 00 00 00 00 07 26 07 32 00 00 00 00 00
13:27:47.679    COM15                   RX     FC07  unit=0  [CRC FAIL calc=EE8A recv=E46B]
13:27:47.679    COM15                          RAW: 00 07 2C 07 30 00 00 00 00 00 00 07 49 07 3E 00 00 00 00 6B E4
13:27:47.702    COM15                   RX     Read Input Regs  unit=1  addr=5000  qty=11  [CRC OK]
13:27:47.703    COM15                          RAW: 01 04 13 88 00 0B 35 63
13:27:47.736    COM15                   RX     Read Input Regs  unit=1  addr=5643  qty=47104  [CRC OK]
13:27:47.736    COM15                          RAW: 01 04 16 0B B8 00 02 10 93 23 3A 00 05 09 31 00 00 01 FB 84 0A 00 03 29 99 24 4A
13:27:47.768    COM15                   RX     Read Input Regs  unit=2  addr=5000  qty=11  [CRC OK]
13:27:47.768    COM15                          RAW: 02 04 13 88 00 0B 35 50
13:27:47.801    COM15                   RX     Read Input Regs  unit=2  addr=5643  qty=47104  [CRC OK]
13:27:47.801    COM15                          RAW: 02 04 16 0B B8 00 02 0F D9 F2 29 00 04 09 43 00 00 01 E4 57 90 00 03 29 8D 32 2D
13:27:47.815    COM15                   RX     Read Input Regs  unit=1  addr=5016  qty=8  [CRC OK]
13:27:47.815    COM15                          RAW: 01 04 13 98 00 08 74 A7
13:27:47.868    COM15                   RX     Read Input Regs  unit=1  addr=4249  qty=20992  [CRC FAIL calc=9A34 recv=8134]
13:27:47.868    COM15                          RAW: 01 04 10 99 52 00 03 20 60 20 58 20 52 06 47 06 47 06 48 BB 40 03 04 13 88 00 0B 34 81
13:27:47.926    COM15                   RX     Read Input Regs  unit=3  addr=5643  qty=47104  [CRC FAIL calc=8F74 recv=9474]
13:27:47.926    COM15                          RAW: 03 04 16 0B B8 00 02 0F 30 BA C8 00 04 09 36 00 00 01 E9 30 DD 00 03 29 36 ED A9 02 04 13 98 00 08 74 94
13:27:47.945    COM15                   RX     Read Input Regs  unit=2  addr=4201  qty=10496  [CRC OK]
13:27:47.945    COM15                          RAW: 02 04 10 69 29 00 03 20 71 20 67 20 53 05 F3 05 F3 05 F2 A4 66
13:27:47.966    COM15                   RX     Read Input Regs  unit=4  addr=5000  qty=11  [CRC OK]
13:27:47.966    COM15                          RAW: 04 04 13 88 00 0B 35 36
13:27:48.001    COM15                   RX     Read Input Regs  unit=4  addr=5643  qty=47104  [CRC OK]
13:27:48.001    COM15                          RAW: 04 04 16 0B B8 00 02 0E 4F 75 41 00 04 09 3E 00 00 01 E2 FE FF 00 02 29 4E 73 BA
13:27:48.042    COM15                   RX     Read Input Regs  unit=5  addr=5000  qty=11  [CRC OK]
13:27:48.042    COM15                          RAW: 05 04 13 88 00 0B 34 E7
13:27:48.059    COM15                   RX     Read Input Regs  unit=5  addr=5643  qty=47104  [CRC OK]
13:27:48.059    COM15                          RAW: 05 04 16 0B B8 00 02 0E 76 7E C0 00 04 09 3E 00 00 01 DF 05 4D 00 03 29 95 33 80
13:27:48.076    COM15                   RX     Read Input Regs  unit=1  addr=5030  qty=6  [CRC OK]
13:27:48.076    COM15                          RAW: 01 04 13 A6 00 06 94 AF
13:27:48.101    COM15                   RX     Read Input Regs  unit=1  addr=3203  qty=31744  [CRC OK]
13:27:48.101    COM15                          RAW: 01 04 0C 83 7C 00 03 DA 50 FF FF 03 E7 01 F5 BE 35
13:27:48.126    COM15                   RX     Read Input Regs  unit=6  addr=5000  qty=11  [CRC OK]
13:27:48.126    COM15                          RAW: 06 04 13 88 00 0B 34 D4
13:27:48.192    COM15                   RX     Read Input Regs  unit=6  addr=5643  qty=47104  [CRC FAIL calc=5E75 recv=4575]
13:27:48.192    COM15                          RAW: 06 04 16 0B B8 00 02 10 96 13 EB 00 05 09 36 00 00 01 E2 74 E5 00 03 29 92 8A 68 03 04 13 98 00 08 75 45
13:27:48.209    COM15                   RX     Read Input Regs  unit=3  addr=4154  qty=9984  [CRC OK]
13:27:48.209    COM15                          RAW: 03 04 10 3A 27 00 03 20 91 20 88 20 7F 05 A8 05 A6 05 A2 2C 87
13:27:48.232    COM15                   RX     Read Input Regs  unit=7  addr=5000  qty=11  [CRC OK]
13:27:48.232    COM15                          RAW: 07 04 13 88 00 0B 35 05
13:27:48.267    COM15                   RX     Read Input Regs  unit=7  addr=5643  qty=47104  [CRC OK]
13:27:48.267    COM15                          RAW: 07 04 16 0B B8 00 02 0C 6B 78 53 00 03 08 D8 00 00 01 D2 94 DC 00 02 29 C4 E2 7C
13:27:48.294    COM15                   RX     Read Input Regs  unit=2  addr=5030  qty=6  [CRC OK]
13:27:48.294    COM15                          RAW: 02 04 13 A6 00 06 94 9C
13:27:48.320    COM15                   RX     Read Input Regs  unit=2  addr=3158  qty=53504  [CRC OK]
13:27:48.320    COM15                          RAW: 02 04 0C 56 D1 00 03 DC 3D FF FF 03 E7 01 F5 36 C4
13:27:48.334    COM15                   RX     Read Input Regs  unit=4  addr=5016  qty=8  [CRC OK]
13:27:48.334    COM15                          RAW: 04 04 13 98 00 08 74 F2
13:27:48.369    COM15                   RX     Read Input Regs  unit=4  addr=4103  qty=49408  [CRC OK]
13:27:48.369    COM15                          RAW: 04 04 10 07 C1 00 03 20 77 20 61 20 52 05 56 05 58 05 58 F0 82
13:27:48.383    COM15                   RX     Read Input Regs  unit=5  addr=5016  qty=8  [CRC OK]
13:27:48.383    COM15                          RAW: 05 04 13 98 00 08 75 23
13:27:48.409    COM15                   RX     Read Input Regs  unit=5  addr=4114  qty=19456  [CRC OK]
13:27:48.409    COM15                          RAW: 05 04 10 12 4C 00 03 20 A0 20 82 20 78 05 5C 05 5B 05 5C C3 07
13:27:48.430    COM15                   RX     Read Input Regs  unit=1  addr=5080  qty=3  [CRC OK]
13:27:48.430    COM15                          RAW: 01 04 13 D8 00 03 34 B4
13:27:48.457    COM15                   RX     Read Input Regs  unit=1  addr=1536  qty=256  [CRC OK]
13:27:48.457    COM15                          RAW: 01 04 06 00 01 00 02 FF FF FD 23
13:27:48.473    COM15                   RX     Read Input Regs  unit=6  addr=5016  qty=8  [CRC OK]
13:27:48.473    COM15                          RAW: 06 04 13 98 00 08 75 10
13:27:48.502    COM15                   RX     Read Input Regs  unit=6  addr=4231  qty=36352  [CRC OK]
13:27:48.502    COM15                          RAW: 06 04 10 87 8E 00 03 20 70 20 70 20 68 06 29 06 27 06 2A 03 39
13:27:48.547    COM15                   RX     Read Input Regs  unit=3  addr=5030  qty=6  [CRC FAIL calc=04DF recv=BB9F]
13:27:48.547    COM15                          RAW: 03 04 13 A6 00 06 95 4D 03 04 0C 2F AB 00 03 DD A3 FF FF 03 E7 01 F5 9F BB
13:27:48.568    COM15                   RX     Read Input Regs  unit=7  addr=5016  qty=8  [CRC OK]
13:27:48.568    COM15                          RAW: 07 04 13 98 00 08 74 C1
13:27:48.588    COM15                   RX     Read Input Regs  unit=7  addr=4257  qty=26368  [CRC OK]
13:27:48.588    COM15                          RAW: 07 04 10 A1 67 00 02 20 68 20 58 20 48 04 9A 04 9E 04 9E FB 61
13:27:48.627    COM15                   RX     Read Input Regs  unit=2  addr=5080  qty=3  [CRC FAIL calc=23E3 recv=D3E9]
13:27:48.627    COM15                          RAW: 02 04 13 D8 00 03 34 87 02 04 06 00 01 00 02 FF FF E9 D3
13:27:48.650    COM15                   RX     Read Input Regs  unit=4  addr=5030  qty=6  [CRC OK]
13:27:48.650    COM15                          RAW: 04 04 13 A6 00 06 94 FA
13:27:48.675    COM15                   RX     Read Input Regs  unit=4  addr=3326  qty=20992  [CRC OK]
13:27:48.675    COM15                          RAW: 04 04 0C FE 52 00 02 DF C2 FF FF 03 E7 01 F5 36 D4
13:27:48.694    COM15                   RX     Read Input Regs  unit=5  addr=5030  qty=6  [CRC OK]
13:27:48.694    COM15                          RAW: 05 04 13 A6 00 06 95 2B
13:27:48.717    COM15                   RX     Read Input Regs  unit=5  addr=3076  qty=40960  [CRC OK]
13:27:48.717    COM15                          RAW: 05 04 0C 04 A0 00 03 DF 9A FF FF 03 E7 01 F5 70 23
13:27:48.738    COM15                   RX     Read Input Regs  unit=1  addr=5092  qty=8  [CRC OK]
13:27:48.738    COM15                          RAW: 01 04 13 E4 00 08 B5 7F
13:27:48.762    COM15                   RX     Read Input Regs  unit=1  addr=4351  qty=65535  [CRC OK]
13:27:48.762    COM15                          RAW: 01 04 10 FF FF FF FF FF FF FF FF FF FF FF FF FF FF FF FF 15 5C
13:27:48.827    COM15                   RX     Read Input Regs  unit=6  addr=5030  qty=6  [CRC FAIL calc=B67F recv=5635]
13:27:48.827    COM15                          RAW: 06 04 13 A6 00 06 95 18 06 04 0C 74 6E 00 03 DA A9 FF FF 03 E7 01 F5 79 8A 03 04 13 D8 00 03 35 56
13:27:48.847    COM15                   RX     Read Input Regs  unit=3  addr=1536  qty=256  [CRC OK]
13:27:48.847    COM15                          RAW: 03 04 06 00 01 00 02 FF FF E4 43
13:27:48.893    COM15                   RX     Read Input Regs  unit=7  addr=5030  qty=6  [CRC FAIL calc=37E8 recv=88A8]
13:27:48.893    COM15                          RAW: 07 04 13 A6 00 06 94 C9 07 04 0C 94 BF 00 02 E4 19 FF FF 03 E7 01 F5 A8 88
13:27:48.919    COM15                   RX     Read Input Regs  unit=2  addr=5092  qty=8  [CRC OK]
13:27:48.919    COM15                          RAW: 02 04 13 E4 00 08 B5 4C
13:27:48.943    COM15                   RX     Read Input Regs  unit=2  addr=4351  qty=65535  [CRC OK]
13:27:48.943    COM15                          RAW: 02 04 10 FF FF FF FF FF FF FF FF FF FF FF FF FF FF FF FF 51 18
13:27:49.044    COM15                   RX     Read Input Regs  unit=4  addr=5080  qty=3  [CRC FAIL calc=A6C2 recv=3E84]
13:27:49.044    COM15                          RAW: 04 04 13 D8 00 03 34 E1 04 04 06 00 01 00 02 FF FF C2 73 05 04 13 D8 00 03 35 30 05 04 06 00 01 00 02 FF FF CF E3 01 04 14 1B 00 04 84 3E
13:27:49.099    COM15                   RX     Read Input Regs  unit=1  addr=2067  qty=38911  [CRC FAIL calc=93A1 recv=13DB]
13:27:49.099    COM15                          RAW: 01 04 08 13 97 FF FF 00 00 00 00 83 C6 06 04 13 D8 00 03 35 03 06 04 06 00 01 00 02 FF FF DB 13
13:27:49.113    COM15                   RX     Read Input Regs  unit=3  addr=5092  qty=8  [CRC OK]
13:27:49.113    COM15                          RAW: 03 04 13 E4 00 08 B4 9D
13:27:49.149    COM15                   RX     Read Input Regs  unit=3  addr=4351  qty=65535  [CRC OK]
13:27:49.149    COM15                          RAW: 03 04 10 FF FF FF FF FF FF FF FF FF FF FF FF FF FF FF FF 6C E4
13:27:49.165    COM15                   RX     Read Input Regs  unit=7  addr=5080  qty=3  [CRC OK]
13:27:49.165    COM15                          RAW: 07 04 13 D8 00 03 34 D2
13:27:49.207    COM15                   RX     Read Input Regs  unit=7  addr=1536  qty=256  [CRC FAIL calc=1684 recv=0D84]
13:27:49.207    COM15                          RAW: 07 04 06 00 01 00 02 FF FF D6 83 02 04 14 1B 00 04 84 0D
13:27:49.256    COM15                   RX     Read Input Regs  unit=2  addr=2067  qty=38911  [CRC FAIL calc=31B5 recv=2AB5]
13:27:49.256    COM15                          RAW: 02 04 08 13 97 FF FF 00 00 00 00 8C 82 04 04 13 E4 00 08 B5 2A
13:27:49.304    COM15                   RX     Read Input Regs  unit=4  addr=4351  qty=65535  [CRC FAIL calc=E0B4 recv=FBB4]
13:27:49.304    COM15                          RAW: 04 04 10 FF FF FF FF FF FF FF FF FF FF FF FF FF FF FF FF D9 90 05 04 13 E4 00 08 B4 FB
13:27:49.351    COM15                   RX     Read Input Regs  unit=5  addr=4351  qty=65535  [CRC FAIL calc=20B7 recv=3BB7]
13:27:49.351    COM15                          RAW: 05 04 10 FF FF FF FF FF FF FF FF FF FF FF FF FF FF FF FF E4 6C 01 04 1B 64 00 18 B7 3B
13:27:49.415    COM15                   RX     Read Input Regs  unit=1  addr=12295  qty=15879  [CRC OK]
13:27:49.415    COM15                          RAW: 01 04 30 07 3E 07 41 07 2D 00 00 00 00 07 2E 07 31 00 00 00 00 00 00 07 20 07 2F 00 00 00 00 00 00 07 24 07 2C 00 00 00 00 00 00 07 51 07 45 00 00 00 00 CC F5
13:27:49.446    COM15                   RX     Read Input Regs  unit=6  addr=5092  qty=8  [CRC OK]
13:27:49.446    COM15                          RAW: 06 04 13 E4 00 08 B4 C8
13:27:49.559    COM15                   RX     Read Input Regs  unit=6  addr=4351  qty=65535  [CRC FAIL calc=E39F recv=D49D]
13:27:49.559    COM15                          RAW: 06 04 10 FF FF FF FF FF FF FF FF FF FF FF FF FF FF FF FF A0 28 03 04 14 1B 00 04 85 DC 03 04 08 13 97 FF FF 00 00 00 00 88 7E 07 04 13 E4 00 08 B5 19 07 04 10 FF FF FF FF FF FF FF FF FF FF FF FF FF FF FF FF 9D D4
13:27:49.590    COM15                   RX     Read Input Regs  unit=2  addr=7012  qty=24  [CRC OK]
13:27:49.590    COM15                          RAW: 02 04 1B 64 00 18 B7 08
13:27:49.630    COM15                   RX     Read Input Regs  unit=2  addr=12295  qty=12807  [CRC OK]
13:27:49.630    COM15                          RAW: 02 04 30 07 32 07 32 00 00 00 00 00 00 07 20 07 18 00 00 00 00 00 00 07 37 07 2B 00 00 00 00 00 00 07 0E 07 06 00 00 00 00 00 00 07 2A 07 1F 00 00 00 00 4A A5
13:27:49.699    COM15                   RX     Read Input Regs  unit=4  addr=5147  qty=4  [CRC FAIL calc=85A1 recv=BA85]
13:27:49.699    COM15                          RAW: 04 04 14 1B 00 04 84 6B 04 04 08 13 97 FF FF 00 00 00 00 92 0A 05 04 14 1B 00 04 85 BA
13:27:49.723    COM15                   RX     Read Input Regs  unit=5  addr=2067  qty=38911  [CRC OK]
13:27:49.723    COM15                          RAW: 05 04 08 13 97 FF FF 00 00 00 00 96 F6
13:27:49.741    COM15                   RX     Read Input Regs  unit=6  addr=5147  qty=4  [CRC OK]
13:27:49.741    COM15                          RAW: 06 04 14 1B 00 04 85 89
13:27:49.757    COM15                   RX     Read Input Regs  unit=6  addr=2067  qty=38911  [CRC OK]
13:27:49.757    COM15                          RAW: 06 04 08 13 97 FF FF 00 00 00 00 99 B2
13:27:49.783    COM15                   RX     Read Input Regs  unit=3  addr=7012  qty=24  [CRC OK]
13:27:49.783    COM15                          RAW: 03 04 1B 64 00 18 B6 D9
13:27:49.873    COM15                   RX     Read Input Regs  unit=3  addr=12295  qty=9991  [CRC FAIL calc=4384 recv=5884]
13:27:49.873    COM15                          RAW: 03 04 30 07 27 07 1F 00 00 00 00 00 00 07 08 07 11 00 00 00 00 00 00 07 0E 03 A7 00 00 00 00 00 00 07 2B 07 11 00 00 00 00 00 00 07 3B 03 A2 00 00 00 00 76 E1 07 04 14 1B 00 04 84 58
13:27:49.920    COM15                   RX     Read Input Regs  unit=7  addr=2067  qty=38911  [CRC FAIL calc=4B35 recv=5035]
13:27:49.920    COM15                          RAW: 07 04 08 13 97 FF FF 00 00 00 00 9D 4E 02 04 13 88 00 0B 35 50
13:27:49.968    COM15                   RX     Read Input Regs  unit=2  addr=5643  qty=47104  [CRC FAIL calc=75B7 recv=6EB7]
13:27:49.968    COM15                          RAW: 02 04 16 0B B8 00 02 0F DA F2 29 00 04 09 43 00 00 01 E4 57 2D 00 03 29 9D AF 0A 04 04 1B 64 00 18 B7 6E
13:27:50.032    COM15                   RX     Read Input Regs  unit=4  addr=12295  qty=6406  [CRC OK]
13:27:50.032    COM15                          RAW: 04 04 30 07 19 06 EE 00 00 00 00 00 00 07 0D 06 D1 00 00 00 00 00 00 07 0E 03 9F 00 00 00 00 00 00 07 09 06 F0 00 00 00 00 00 00 07 1B 03 97 00 00 00 00 4C DB
13:27:50.063    COM15                   RX     Read Input Regs  unit=5  addr=7012  qty=24  [CRC OK]
13:27:50.063    COM15                          RAW: 05 04 1B 64 00 18 B6 BF
13:27:50.096    COM15                   RX     Read Input Regs  unit=5  addr=12295  qty=7687  [CRC FAIL calc=57D5 recv=0000]
13:27:50.096    COM15                          RAW: 05 04 30 07 1E 07 12 00 00 00 00 00 00 07 15 07 10 00 00 00 00 00 00 07 1E 03 9C 00 00 00 00 00
13:27:50.144    COM15                   RX     FC07  unit=0  [CRC FAIL calc=B48D recv=8CB6]
13:27:50.144    COM15                          RAW: 00 07 08 06 F5 00 00 00 00 00 00 07 19 03 94 00 00 00 00 97 B8 06 04 1B 64 00 18 B6 8C
13:27:50.204    COM15                   RX     Read Input Regs  unit=6  addr=12295  qty=11011  [CRC OK]
13:27:50.204    COM15                          RAW: 06 04 30 07 2B 03 94 07 1E 00 00 00 00 06 FF 07 1C 07 08 00 00 00 00 07 26 03 9B 00 00 00 00 00 00 07 0B 07 07 00 00 00 00 00 00 07 23 03 96 00 00 00 00 64 0F
13:27:50.235    COM15                   RX     Read Input Regs  unit=3  addr=5000  qty=11  [CRC OK]
13:27:50.236    COM15                          RAW: 03 04 13 88 00 0B 34 81
13:27:50.283    COM15                   RX     Read Input Regs  unit=3  addr=5643  qty=47104  [CRC FAIL calc=46B7 recv=5DB7]
13:27:50.283    COM15                          RAW: 03 04 16 0B B8 00 02 0F 31 BA C9 00 04 09 36 00 00 01 E9 2F DD 00 03 29 95 3F 2F 07 04 1B 64 00 18 B7 5D
13:27:50.347    COM15                   RX     Read Input Regs  unit=7  addr=12295  qty=6151  [CRC OK]
13:27:50.347    COM15                          RAW: 07 04 30 07 18 07 20 00 00 00 00 00 00 06 E7 06 9B 00 00 00 00 00 00 07 22 07 25 00 00 00 00 00 00 03 92 03 9D 00 00 00 00 00 00 03 8E 00 00 00 00 00 00 7C FA
13:27:50.395    COM15                   RX     Read Input Regs  unit=2  addr=5016  qty=8  [CRC FAIL calc=35A6 recv=1182]
13:27:50.395    COM15                          RAW: 02 04 13 98 00 08 74 94 02 04 10 67 80 00 03 20 70 20 66 20 55 05 F4 05 F2 05 F1 82 11
13:27:50.426    COM15                   RX     Read Input Regs  unit=4  addr=5000  qty=11  [CRC OK]
13:27:50.426    COM15                          RAW: 04 04 13 88 00 0B 35 36
13:27:50.474    COM15                   RX     Read Input Regs  unit=4  addr=5643  qty=47104  [CRC FAIL calc=FC34 recv=E734]
13:27:50.474    COM15                          RAW: 04 04 16 0B B8 00 02 0E 51 75 41 00 04 09 3E 00 00 01 E2 FE B1 00 02 29 5D 33 DF 05 04 13 88 00 0B 34 E7
13:27:50.506    COM15                   RX     Read Input Regs  unit=5  addr=5643  qty=47104  [CRC OK]
13:27:50.506    COM15                          RAW: 05 04 16 0B B8 00 02 0E 78 7E C0 00 04 09 3E 00 00 01 DF 05 50 00 03 29 88 7B E8
13:27:50.538    COM15                   RX     Read Input Regs  unit=6  addr=5000  qty=11  [CRC OK]
13:27:50.538    COM15                          RAW: 06 04 13 88 00 0B 34 D4
13:27:50.586    COM15                   RX     Read Input Regs  unit=6  addr=5643  qty=47104  [CRC FAIL calc=5E75 recv=4575]
13:27:50.586    COM15                          RAW: 06 04 16 0B B8 00 02 10 97 13 EB 00 05 09 36 00 00 01 E2 75 E9 00 03 29 C1 8A 15 03 04 13 98 00 08 75 45
13:27:50.626    COM15                   RX     Read Input Regs  unit=3  addr=4152  qty=47104  [CRC FAIL calc=1E35 recv=0535]
13:27:50.626    COM15                          RAW: 03 04 10 38 B8 00 03 20 92 20 88 20 80 05 A5 05 A3 05 A0 CE C4 07 04 13 88 00 0B 35 05
13:27:50.661    COM15                   RX     Read Input Regs  unit=7  addr=5643  qty=47104  [CRC OK]
13:27:50.661    COM15                          RAW: 07 04 16 0B B8 00 02 0C 6C 78 53 00 03 08 D8 00 00 01 D2 95 84 00 02 29 B5 B0 75
13:27:50.689    COM15                   RX     Read Input Regs  unit=2  addr=5030  qty=6  [CRC OK]
13:27:50.689    COM15                          RAW: 02 04 13 A6 00 06 94 9C
13:27:50.715    COM15                   RX     Read Input Regs  unit=2  addr=3158  qty=12544  [CRC OK]
13:27:50.715    COM15                          RAW: 02 04 0C 56 31 00 03 DC 18 FF FF 03 E7 01 F5 15 C5
13:27:50.742    COM15                   RX     Read Input Regs  unit=4  addr=5016  qty=8  [CRC OK]
13:27:50.742    COM15                          RAW: 04 04 13 98 00 08 74 F2
13:27:50.765    COM15                   RX     Read Input Regs  unit=4  addr=4103  qty=41728  [CRC OK]
13:27:50.765    COM15                          RAW: 04 04 10 07 A3 00 03 20 78 20 60 20 50 05 55 05 57 05 57 38 E8
13:27:50.788    COM15                   RX     Read Input Regs  unit=5  addr=5016  qty=8  [CRC OK]
13:27:50.788    COM15                          RAW: 05 04 13 98 00 08 75 23
13:27:50.814    COM15                   RX     Read Input Regs  unit=5  addr=4114  qty=30464  [CRC OK]
13:27:50.814    COM15                          RAW: 05 04 10 12 77 00 03 20 A0 20 81 20 78 05 5C 05 5B 05 5C AC E4
13:27:50.845    COM15                   RX     Read Input Regs  unit=6  addr=5016  qty=8  [CRC OK]
13:27:50.846    COM15                          RAW: 06 04 13 98 00 08 75 10
13:27:50.863    COM15                   RX     Read Input Regs  unit=6  addr=4232  qty=26624  [CRC OK]
13:27:50.863    COM15                          RAW: 06 04 10 88 68 00 03 20 70 20 70 20 68 06 2C 06 28 06 2B 1D 44
13:27:50.889    COM15                   RX     Read Input Regs  unit=3  addr=5030  qty=6  [CRC OK]
13:27:50.889    COM15                          RAW: 03 04 13 A6 00 06 95 4D
13:27:50.905    COM15                   RX     Read Input Regs  unit=3  addr=3118  qty=48384  [CRC OK]
13:27:50.906    COM15                          RAW: 03 04 0C 2E BD 00 03 DD AC FF FF 03 E7 01 F5 D7 30
13:27:50.929    COM15                   RX     Read Input Regs  unit=7  addr=5016  qty=8  [CRC OK]
13:27:50.929    COM15                          RAW: 07 04 13 98 00 08 74 C1
13:27:50.955    COM15                   RX     Read Input Regs  unit=7  addr=4258  qty=14336  [CRC OK]
13:27:50.955    COM15                          RAW: 07 04 10 A2 38 00 02 20 68 20 58 20 47 04 9B 04 9F 04 9F F6 68
13:27:50.997    COM15                   RX     Read Input Regs  unit=2  addr=5080  qty=3  [CRC FAIL calc=23E3 recv=D3E9]
13:27:50.997    COM15                          RAW: 02 04 13 D8 00 03 34 87 02 04 06 00 01 00 02 FF FF E9 D3
13:27:51.014    COM15                   RX     Read Input Regs  unit=4  addr=5030  qty=6  [CRC OK]
13:27:51.014    COM15                          RAW: 04 04 13 A6 00 06 94 FA
13:27:51.037    COM15                   RX     Read Input Regs  unit=4  addr=3325  qty=55552  [CRC OK]
13:27:51.037    COM15                          RAW: 04 04 0C FD D9 00 02 DF 9C FF FF 03 E7 01 F5 01 F3
13:27:51.063    COM15                   RX     Read Input Regs  unit=5  addr=5030  qty=6  [CRC OK]
13:27:51.063    COM15                          RAW: 05 04 13 A6 00 06 95 2B
13:27:51.087    COM15                   RX     Read Input Regs  unit=5  addr=3076  qty=37120  [CRC OK]
13:27:51.087    COM15                          RAW: 05 04 0C 04 91 00 03 DF 6B FF FF 03 E7 01 F5 6B 10
13:27:51.112    COM15                   RX     Read Input Regs  unit=6  addr=5030  qty=6  [CRC OK]
13:27:51.112    COM15                          RAW: 06 04 13 A6 00 06 95 18
13:27:51.147    COM15                   RX     Read Input Regs  unit=6  addr=3189  qty=30464  [CRC FAIL calc=4D35 recv=5635]
13:27:51.147    COM15                          RAW: 06 04 0C 75 77 00 03 DA A9 FF FF 03 E7 01 F5 FE 15 03 04 13 D8 00 03 35 56
13:27:51.163    COM15                   RX     Read Input Regs  unit=3  addr=1536  qty=256  [CRC OK]
13:27:51.163    COM15                          RAW: 03 04 06 00 01 00 02 FF FF E4 43
13:27:51.189    COM15                   RX     Read Input Regs  unit=7  addr=5030  qty=6  [CRC OK]
13:27:51.189    COM15                          RAW: 07 04 13 A6 00 06 94 C9
13:27:51.213    COM15                   RX     Read Input Regs  unit=7  addr=3220  qty=60672  [CRC OK]
13:27:51.213    COM15                          RAW: 07 04 0C 94 ED 00 02 E4 0C FF FF 03 E7 01 F5 E6 F0
13:27:51.237    COM15                   RX     Read Input Regs  unit=2  addr=5092  qty=8  [CRC OK]
13:27:51.237    COM15                          RAW: 02 04 13 E4 00 08 B5 4C
13:27:51.263    COM15                   RX     Read Input Regs  unit=2  addr=4351  qty=65535  [CRC OK]
13:27:51.263    COM15                          RAW: 02 04 10 FF FF FF FF FF FF FF FF FF FF FF FF FF FF FF FF 51 18
13:27:51.278    COM15                   RX     Read Input Regs  unit=4  addr=5080  qty=3  [CRC OK]
13:27:51.278    COM15                          RAW: 04 04 13 D8 00 03 34 E1
13:27:51.305    COM15                   RX     Read Input Regs  unit=4  addr=1536  qty=256  [CRC OK]
13:27:51.305    COM15                          RAW: 04 04 06 00 01 00 02 FF FF C2 73
13:27:51.321    COM15                   RX     Read Input Regs  unit=5  addr=5080  qty=3  [CRC OK]
13:27:51.321    COM15                          RAW: 05 04 13 D8 00 03 35 30
13:27:51.338    COM15                   RX     Read Input Regs  unit=5  addr=1536  qty=256  [CRC OK]
13:27:51.339    COM15                          RAW: 05 04 06 00 01 00 02 FF FF CF E3
13:27:51.354    COM15                   RX     Read Input Regs  unit=6  addr=5080  qty=3  [CRC OK]
13:27:51.354    COM15                          RAW: 06 04 13 D8 00 03 35 03
13:27:51.379    COM15                   RX     Read Input Regs  unit=6  addr=1536  qty=256  [CRC OK]
13:27:51.379    COM15                          RAW: 06 04 06 00 01 00 02 FF FF DB 13
13:27:51.396    COM15                   RX     Read Input Regs  unit=3  addr=5092  qty=8  [CRC OK]
13:27:51.396    COM15                          RAW: 03 04 13 E4 00 08 B4 9D
13:27:51.421    COM15                   RX     Read Input Regs  unit=3  addr=4351  qty=65535  [CRC OK]
13:27:51.421    COM15                          RAW: 03 04 10 FF FF FF FF FF FF FF FF FF FF FF FF FF FF FF FF 6C E4
13:27:51.461    COM15                   RX     Read Input Regs  unit=7  addr=5080  qty=3  [CRC FAIL calc=73DC recv=83D6]
13:27:51.461    COM15                          RAW: 07 04 13 D8 00 03 34 D2 07 04 06 00 01 00 02 FF FF D6 83
13:27:51.479    COM15                   RX     Read Input Regs  unit=2  addr=5147  qty=4  [CRC OK]
13:27:51.479    COM15                          RAW: 02 04 14 1B 00 04 84 0D
13:27:51.522    COM15                   RX     Read Input Regs  unit=2  addr=2067  qty=38911  [CRC FAIL calc=31B5 recv=2AB5]
13:27:51.522    COM15                          RAW: 02 04 08 13 97 FF FF 00 00 00 00 8C 82 04 04 13 E4 00 08 B5 2A
13:27:51.579    COM15                   RX     Read Input Regs  unit=4  addr=4351  qty=65535  [CRC FAIL calc=E0B4 recv=FBB4]
13:27:51.579    COM15                          RAW: 04 04 10 FF FF FF FF FF FF FF FF FF FF FF FF FF FF FF FF D9 90 05 04 13 E4 00 08 B4 FB
13:27:51.604    COM15                   RX     Read Input Regs  unit=5  addr=4351  qty=65535  [CRC OK]
13:27:51.604    COM15                          RAW: 05 04 10 FF FF FF FF FF FF FF FF FF FF FF FF FF FF FF FF E4 6C
13:27:51.621    COM15                   RX     Read Input Regs  unit=6  addr=5092  qty=8  [CRC OK]
13:27:51.621    COM15                          RAW: 06 04 13 E4 00 08 B4 C8
13:27:51.654    COM15                   RX     Read Input Regs  unit=6  addr=4351  qty=65535  [CRC OK]
13:27:51.654    COM15                          RAW: 06 04 10 FF FF FF FF FF FF FF FF FF FF FF FF FF FF FF FF A0 28
13:27:51.670    COM15                   RX     Read Input Regs  unit=3  addr=5147  qty=4  [CRC OK]
13:27:51.670    COM15                          RAW: 03 04 14 1B 00 04 85 DC
13:27:51.695    COM15                   RX     Read Input Regs  unit=3  addr=2067  qty=38911  [CRC OK]
13:27:51.695    COM15                          RAW: 03 04 08 13 97 FF FF 00 00 00 00 88 7E
13:27:51.716    COM15                   RX     Read Input Regs  unit=7  addr=5092  qty=8  [CRC OK]
13:27:51.716    COM15                          RAW: 07 04 13 E4 00 08 B5 19
13:27:51.736    COM15                   RX     Read Input Regs  unit=7  addr=4351  qty=65535  [CRC OK]
13:27:51.737    COM15                          RAW: 07 04 10 FF FF FF FF FF FF FF FF FF FF FF FF FF FF FF FF 9D D4
13:27:51.761    COM15                   RX     Read Input Regs  unit=2  addr=7012  qty=24  [CRC OK]
13:27:51.761    COM15                          RAW: 02 04 1B 64 00 18 B7 08
13:27:51.803    COM15                   RX     Read Input Regs  unit=2  addr=12295  qty=13319  [CRC FAIL calc=9A68 recv=0000]
13:27:51.803    COM15                          RAW: 02 04 30 07 34 07 31 00 00 00 00 00 00 07 19 07 11 00 00 00 00 00 00 07 34 07 26 00 00 00 00 00
13:27:51.820    COM15                   RX     FC07  unit=0  [CRC FAIL calc=0BB4 recv=2735]
13:27:51.820    COM15                          RAW: 00 07 17 07 12 00 00 00 00 00 00 07 2B 07 1F 00 00 00 00 35 27
13:27:51.846    COM15                   RX     Read Input Regs  unit=4  addr=5147  qty=4  [CRC OK]
13:27:51.846    COM15                          RAW: 04 04 14 1B 00 04 84 6B
13:27:51.871    COM15                   RX     Read Input Regs  unit=4  addr=2067  qty=38911  [CRC OK]
13:27:51.871    COM15                          RAW: 04 04 08 13 97 FF FF 00 00 00 00 92 0A
13:27:51.886    COM15                   RX     Read Input Regs  unit=5  addr=5147  qty=4  [CRC OK]
13:27:51.886    COM15                          RAW: 05 04 14 1B 00 04 85 BA
13:27:51.905    COM15                   RX     Read Input Regs  unit=5  addr=2067  qty=38911  [CRC OK]
13:27:51.905    COM15                          RAW: 05 04 08 13 97 FF FF 00 00 00 00 96 F6
13:27:51.953    COM15                   RX     Read Input Regs  unit=6  addr=5147  qty=4  [CRC FAIL calc=569F recv=B299]
13:27:51.953    COM15                          RAW: 06 04 14 1B 00 04 85 89 06 04 08 13 97 FF FF 00 00 00 00 99 B2
13:27:51.970    COM15                   RX     Read Input Regs  unit=3  addr=7012  qty=24  [CRC OK]
13:27:51.970    COM15                          RAW: 03 04 1B 64 00 18 B6 D9
13:27:52.003    COM15                   RX     Read Input Regs  unit=3  addr=12295  qty=8455  [CRC FAIL calc=F8CE recv=0000]
13:27:52.003    COM15                          RAW: 03 04 30 07 21 07 19 00 00 00 00 00 00 06 FB 07 05 00 00 00 00 00 00 07 15 03 AA 00 00 00 00 00
13:27:52.028    COM15                   RX     FC07  unit=0  [CRC FAIL calc=526D recv=F8C2]
13:27:52.028    COM15                          RAW: 00 07 27 07 0D 00 00 00 00 00 00 07 3D 03 A4 00 00 00 00 C2 F8
13:27:52.060    COM15                   RX     Read Input Regs  unit=7  addr=5147  qty=4  [CRC OK]
13:27:52.060    COM15                          RAW: 07 04 14 1B 00 04 84 58
13:27:52.077    COM15                   RX     Read Input Regs  unit=7  addr=2067  qty=38911  [CRC OK]
13:27:52.077    COM15                          RAW: 07 04 08 13 97 FF FF 00 00 00 00 9D 4E
13:27:52.103    COM15                   RX     Read Input Regs  unit=4  addr=7012  qty=24  [CRC OK]
13:27:52.103    COM15                          RAW: 04 04 1B 64 00 18 B7 6E
13:27:52.136    COM15                   RX     Read Input Regs  unit=4  addr=12295  qty=2054  [CRC FAIL calc=C9A6 recv=0000]
13:27:52.136    COM15                          RAW: 04 04 30 07 08 06 DB 00 00 00 00 00 00 07 0E 06 D3 00 00 00 00 00 00 07 00 03 9A 00 00 00 00 00
13:27:52.160    COM15                   RX     FC07  unit=0  [CRC FAIL calc=EC4E recv=8D79]
13:27:52.160    COM15                          RAW: 00 07 09 06 F0 00 00 00 00 00 00 07 16 03 96 00 00 00 00 79 8D
13:27:52.185    COM15                   RX     Read Input Regs  unit=5  addr=7012  qty=24  [CRC OK]
13:27:52.186    COM15                          RAW: 05 04 1B 64 00 18 B6 BF
13:27:52.226    COM15                   RX     Read Input Regs  unit=5  addr=12295  qty=8967  [CRC FAIL calc=C148 recv=0000]
13:27:52.226    COM15                          RAW: 05 04 30 07 23 07 17 00 00 00 00 00 00 07 14 07 0F 00 00 00 00 00 00 07 20 03 9E 00 00 00 00 00
13:27:52.245    COM15                   RX     FC07  unit=0  [CRC FAIL calc=4A95 recv=225A]
13:27:52.245    COM15                          RAW: 00 07 0B 06 FA 00 00 00 00 00 00 07 1F 03 98 00 00 00 00 5A 22
13:27:52.284    COM15                   RX     Read Input Regs  unit=6  addr=7012  qty=24  [CRC OK]
13:27:52.284    COM15                          RAW: 06 04 1B 64 00 18 B6 8C
13:27:52.332    COM15                   RX     Read Input Regs  unit=6  addr=12295  qty=11267  [CRC OK]
13:27:52.332    COM15                          RAW: 06 04 30 07 2C 03 96 07 1E 00 00 00 00 06 F4 07 12 06 FC 00 00 00 00 07 1F 03 99 00 00 00 00 00 00 07 0D 07 09 00 00 00 00 00 00 07 24 03 98 00 00 00 00 26 A3
13:27:52.364    COM15                   RX     Read Input Regs  unit=7  addr=7012  qty=24  [CRC OK]
13:27:52.364    COM15                          RAW: 07 04 1B 64 00 18 B7 5D
13:27:52.395    COM15                   RX     Read Input Regs  unit=7  addr=12295  qty=6663  [CRC FAIL calc=A116 recv=0000]
13:27:52.395    COM15                          RAW: 07 04 30 07 1A 07 22 00 00 00 00 00 00 06 E8 06 A3 00 00 00 00 00 00 07 27 07 29 00 00 00 00 00
13:27:52.434    COM15                   RX     Read Holding Regs  unit=0  addr=37379  qty=40192  [CRC FAIL calc=A82A recv=13DF]
13:27:52.434    COM15                          RAW: 00 03 92 03 9D 00 00 00 00 00 00 03 8E 00 00 00 00 00 00 DF 13
13:27:59.931    COM15                   RX     Read Input Regs  unit=1  addr=5000  qty=11  [CRC OK]
13:27:59.931    COM15                          RAW: 01 04 13 88 00 0B 35 63
13:27:59.979    COM15                   RX     Read Input Regs  unit=1  addr=5643  qty=47104  [CRC FAIL calc=BC74 recv=A774]
13:27:59.979    COM15                          RAW: 01 04 16 0B B8 00 02 10 9B 23 3B 00 05 09 31 00 00 01 FB 7C 89 00 03 29 C4 F3 17 01 04 13 98 00 08 74 A7
13:28:00.026    COM15                   RX     Read Input Regs  unit=1  addr=4240  qty=28928  [CRC FAIL calc=4B35 recv=5035]
13:28:00.026    COM15                          RAW: 01 04 10 90 71 00 03 20 5E 20 57 20 50 06 38 06 38 06 3A 13 E0 02 04 13 88 00 0B 35 50
13:28:00.058    COM15                   RX     Read Input Regs  unit=2  addr=5643  qty=47104  [CRC OK]
13:28:00.058    COM15                          RAW: 02 04 16 0B B8 00 02 0F E0 F2 29 00 04 09 43 00 00 01 E4 51 8F 00 03 29 9B E4 1A
13:28:00.106    COM15                   RX     Read Input Regs  unit=1  addr=5030  qty=6  [CRC FAIL calc=C0FF recv=7FBF]
13:28:00.106    COM15                          RAW: 01 04 13 A6 00 06 94 AF 01 04 0C 7B D0 00 03 DB FF FF FF 03 E7 01 F5 BF 7F
13:28:00.138    COM15                   RX     Read Input Regs  unit=3  addr=5000  qty=11  [CRC OK]
13:28:00.138    COM15                          RAW: 03 04 13 88 00 0B 34 81
13:28:00.186    COM15                   RX     Read Input Regs  unit=3  addr=5643  qty=47104  [CRC FAIL calc=8F74 recv=9474]
13:28:00.186    COM15                          RAW: 03 04 16 0B B8 00 02 0F 37 BA C9 00 04 09 36 00 00 01 E9 2D BD 00 03 29 80 9C AB 02 04 13 98 00 08 74 94
13:28:00.250    COM15                   RX     Read Input Regs  unit=2  addr=4194  qty=26368  [CRC FAIL calc=A387 recv=23FD]
13:28:00.250    COM15                          RAW: 02 04 10 62 67 00 03 20 71 20 61 20 52 05 E9 05 E9 05 E6 6E 0F 01 04 13 D8 00 03 34 B4 01 04 06 00 01 00 02 FF FF FD 23
13:28:00.281    COM15                   RX     Read Input Regs  unit=4  addr=5000  qty=11  [CRC OK]
13:28:00.281    COM15                          RAW: 04 04 13 88 00 0B 35 36
13:28:00.329    COM15                   RX     Read Input Regs  unit=4  addr=5643  qty=47104  [CRC FAIL calc=5E75 recv=4575]
13:28:00.329    COM15                          RAW: 04 04 16 0B B8 00 02 0E 56 75 41 00 04 09 3E 00 00 01 E2 FF D4 00 02 29 77 4D E8 03 04 13 98 00 08 75 45
13:28:00.424    COM15                   RX     Read Input Regs  unit=3  addr=4151  qty=47104  [CRC FAIL calc=87B0 recv=E734]
13:28:00.424    COM15                          RAW: 03 04 10 37 B8 00 03 20 91 20 88 20 80 05 A4 05 A3 05 A0 B9 B4 02 04 13 A6 00 06 94 9C 02 04 0C 50 9A 00 03 DD BF FF FF 03 E7 01 F5 2D ED 05 04 13 88 00 0B 34 E7
13:28:00.472    COM15                   RX     Read Input Regs  unit=5  addr=5643  qty=47104  [CRC FAIL calc=64B5 recv=7FB5]
13:28:00.472    COM15                          RAW: 05 04 16 0B B8 00 02 0E 7D 7E C1 00 04 09 3E 00 00 01 DF 0A 14 00 03 29 91 98 83 01 04 13 E4 00 08 B5 7F
13:28:00.519    COM15                   RX     Read Input Regs  unit=1  addr=4351  qty=65535  [CRC FAIL calc=E974 recv=F274]
13:28:00.519    COM15                          RAW: 01 04 10 FF FF FF FF FF FF FF FF FF FF FF FF FF FF FF FF 15 5C 04 04 13 98 00 08 74 F2
13:28:00.568    COM15                   RX     Read Input Regs  unit=4  addr=4106  qty=17408  [CRC FAIL calc=5695 recv=4D95]
13:28:00.568    COM15                          RAW: 04 04 10 0A 44 00 03 20 76 20 60 20 53 05 5A 05 5C 05 5C 38 DB 03 04 13 A6 00 06 95 4D
13:28:00.631    COM15                   RX     Read Input Regs  unit=3  addr=3117  qty=49152  [CRC FAIL calc=5393 recv=D3E9]
13:28:00.631    COM15                          RAW: 03 04 0C 2D C0 00 03 DF 3F FF FF 03 E7 01 F5 60 89 02 04 13 D8 00 03 34 87 02 04 06 00 01 00 02 FF FF E9 D3
13:28:00.741    COM15                   RX     Read Input Regs  unit=5  addr=5016  qty=8  [CRC FAIL calc=FD22 recv=D434]
13:28:00.742    COM15                          RAW: 05 04 13 98 00 08 75 23 05 04 10 17 DB 00 03 20 A1 20 80 20 79 05 68 05 67 05 67 EA 7D 01 04 14 1B 00 04 84 3E 01 04 08 13 96 FF FF 00 00 00 00 93 06 06 04 13 88 00 0B 34 D4
13:28:00.822    COM15                   RX     Read Input Regs  unit=6  addr=5643  qty=47104  [CRC FAIL calc=4D17 recv=091D]
13:28:00.822    COM15                          RAW: 06 04 16 0B B8 00 02 10 9E 13 EC 00 05 09 36 00 00 01 E2 7E 13 00 03 29 AF 43 C6 04 04 13 A6 00 06 94 FA 04 04 0C FF 34 00 02 E0 F6 FF FF 03 E7 01 F5 1D 09
13:28:00.885    COM15                   RX     Read Input Regs  unit=3  addr=5080  qty=3  [CRC FAIL calc=6E45 recv=0535]
13:28:00.885    COM15                          RAW: 03 04 13 D8 00 03 35 56 03 04 06 00 01 00 02 FF FF E4 43 07 04 13 88 00 0B 35 05
13:28:00.917    COM15                   RX     Read Input Regs  unit=7  addr=5643  qty=47104  [CRC OK]
13:28:00.917    COM15                          RAW: 07 04 16 0B B8 00 02 0C 71 78 54 00 03 08 D8 00 00 01 D2 9D 06 00 02 29 DF 97 58
13:28:00.965    COM15                   RX     Read Input Regs  unit=2  addr=5092  qty=8  [CRC FAIL calc=3C75 recv=1851]
13:28:00.965    COM15                          RAW: 02 04 13 E4 00 08 B5 4C 02 04 10 FF FF FF FF FF FF FF FF FF FF FF FF FF FF FF FF 51 18
13:28:01.012    COM15                   RX     Read Input Regs  unit=5  addr=5030  qty=6  [CRC FAIL calc=4FA5 recv=F0E5]
13:28:01.012    COM15                          RAW: 05 04 13 A6 00 06 95 2B 05 04 0C 0A CC 00 03 E0 84 FF FF 03 E7 01 F5 E5 F0
13:28:01.044    COM15                   RX     Read Input Regs  unit=1  addr=7012  qty=24  [CRC OK]
13:28:01.044    COM15                          RAW: 01 04 1B 64 00 18 B7 3B
13:28:01.124    COM15                   RX     Read Input Regs  unit=1  addr=12295  qty=14599  [CRC FAIL calc=0B75 recv=1075]
13:28:01.124    COM15                          RAW: 01 04 30 07 39 07 32 07 28 00 00 00 00 07 18 07 15 00 00 00 00 00 00 07 15 07 1B 00 00 00 00 00 00 07 14 07 15 00 00 00 00 00 00 07 3E 07 35 00 00 00 00 41 AC 06 04 13 98 00 08 75 10
13:28:01.187    COM15                   RX     Read Input Regs  unit=6  addr=4243  qty=31488  [CRC FAIL calc=F3B8 recv=73C2]
13:28:01.187    COM15                          RAW: 06 04 10 93 7B 00 03 20 70 20 70 20 66 06 3E 06 3C 06 3E D2 BA 04 04 13 D8 00 03 34 E1 04 04 06 00 01 00 02 FF FF C2 73
13:28:01.235    COM15                   RX     Read Input Regs  unit=3  addr=5092  qty=8  [CRC FAIL calc=C048 recv=E46C]
13:28:01.235    COM15                          RAW: 03 04 13 E4 00 08 B4 9D 03 04 10 FF FF FF FF FF FF FF FF FF FF FF FF FF FF FF FF 6C E4
13:28:01.361    COM15                   RX     Read Input Regs  unit=7  addr=5016  qty=8  [CRC FAIL calc=1E5E recv=E3CF]
13:28:01.361    COM15                          RAW: 07 04 13 98 00 08 74 C1 07 04 10 AB 4E 00 02 20 69 20 58 20 44 04 AB 04 B0 04 AE 41 FD 02 04 14 1B 00 04 84 0D 02 04 08 13 96 FF FF 00 00 00 00 9C 42 05 04 13 D8 00 03 35 30 05 04 06 00 01 00 02 FF FF CF E3
13:28:01.393    COM15                   RX     Read Input Regs  unit=1  addr=5000  qty=11  [CRC OK]
13:28:01.393    COM15                          RAW: 01 04 13 88 00 0B 35 63
13:28:01.441    COM15                   RX     Read Input Regs  unit=1  addr=5643  qty=47104  [CRC FAIL calc=0395 recv=1895]
13:28:01.441    COM15                          RAW: 01 04 16 0B B8 00 02 10 9C 23 3B 00 05 09 31 00 00 01 FC 7B E5 00 03 29 D0 A6 57 06 04 13 A6 00 06 95 18
13:28:01.488    COM15                   RX     Read Input Regs  unit=6  addr=3199  qty=9216  [CRC FAIL calc=31B5 recv=2AB5]
13:28:01.488    COM15                          RAW: 06 04 0C 7F 24 00 03 DB DF FF FF 03 E7 01 F5 3E 43 04 04 13 E4 00 08 B5 2A
13:28:01.551    COM15                   RX     Read Input Regs  unit=4  addr=4351  qty=65535  [CRC FAIL calc=7EBA recv=BE98]
13:28:01.551    COM15                          RAW: 04 04 10 FF FF FF FF FF FF FF FF FF FF FF FF FF FF FF FF D9 90 03 04 14 1B 00 04 85 DC 03 04 08 13 96 FF FF 00 00 00 00 98 BE
13:28:01.615    COM15                   RX     Read Input Regs  unit=7  addr=5030  qty=6  [CRC FAIL calc=E8FD recv=08B7]
13:28:01.615    COM15                          RAW: 07 04 13 A6 00 06 94 C9 07 04 0C 9E 06 00 02 E4 F8 FF FF 03 E7 01 F5 39 C0 02 04 1B 64 00 18 B7 08
13:28:01.679    COM15                   RX     Read Input Regs  unit=2  addr=12295  qty=7431  [CRC OK]
13:28:01.679    COM15                          RAW: 02 04 30 07 1D 07 1E 00 00 00 00 00 00 07 13 07 03 00 00 00 00 00 00 07 21 07 16 00 00 00 00 00 00 07 18 07 09 00 00 00 00 00 00 07 23 07 0E 00 00 00 00 A9 00
13:28:01.727    COM15                   RX     Read Input Regs  unit=5  addr=5092  qty=8  [CRC FAIL calc=48C0 recv=6CE4]
13:28:01.727    COM15                          RAW: 05 04 13 E4 00 08 B4 FB 05 04 10 FF FF FF FF FF FF FF FF FF FF FF FF FF FF FF FF E4 6C
13:28:01.775    COM15                   RX     Read Input Regs  unit=1  addr=5016  qty=8  [CRC FAIL calc=21D1 recv=05F5]
13:28:01.775    COM15                          RAW: 01 04 13 98 00 08 74 A7 01 04 10 8F FF 00 03 20 58 20 50 20 48 06 38 06 38 06 3A F5 05
13:28:01.885    COM15                   RX     Read Input Regs  unit=6  addr=5080  qty=3  [CRC FAIL calc=03C5 recv=D9B6]
13:28:01.885    COM15                          RAW: 06 04 13 D8 00 03 35 03 06 04 06 00 01 00 02 FF FF DB 13 04 04 14 1B 00 04 84 6B 04 04 08 13 96 FF FF 00 00 00 00 82 CA 03 04 1B 64 00 18 B6 D9
13:28:01.917    COM15                   RX     Read Input Regs  unit=3  addr=12295  qty=9735  [CRC FAIL calc=8B82 recv=0000]
13:28:01.917    COM15                          RAW: 03 04 30 07 26 07 2B 00 00 00 00 00 00 07 04 07 1B 00 00 00 00 00 00 07 17 03 A9 00 00 00 00 00
13:28:01.981    COM15                   RX     FC07  unit=0  [CRC FAIL calc=845F recv=83D6]
13:28:01.981    COM15                          RAW: 00 07 28 07 1A 00 00 00 00 00 00 07 21 03 95 00 00 00 00 8D 00 07 04 13 D8 00 03 34 D2 07 04 06 00 01 00 02 FF FF D6 83
13:28:02.011    COM15                   RX     Read Input Regs  unit=2  addr=5000  qty=11  [CRC OK]
13:28:02.012    COM15                          RAW: 02 04 13 88 00 0B 35 50
13:28:02.076    COM15                   RX     Read Input Regs  unit=2  addr=5643  qty=47104  [CRC FAIL calc=F6A4 recv=3686]
13:28:02.076    COM15                          RAW: 02 04 16 0B B8 00 02 0F E2 F2 2A 00 04 09 43 00 00 01 E4 51 61 00 03 29 CC AF 92 05 04 14 1B 00 04 85 BA 05 04 08 13 96 FF FF 00 00 00 00 86 36
13:28:02.124    COM15                   RX     Read Input Regs  unit=1  addr=5030  qty=6  [CRC FAIL calc=1578 recv=AA38]
13:28:02.124    COM15                          RAW: 01 04 13 A6 00 06 94 AF 01 04 0C 7A B1 00 03 DC 2E FF FF 03 E7 01 F5 38 AA
13:28:02.171    COM15                   RX     Read Input Regs  unit=6  addr=5092  qty=8  [CRC FAIL calc=0C84 recv=28A0]
13:28:02.171    COM15                          RAW: 06 04 13 E4 00 08 B4 C8 06 04 10 FF FF FF FF FF FF FF FF FF FF FF FF FF FF FF FF A0 28
13:28:02.203    COM15                   RX     Read Input Regs  unit=4  addr=7012  qty=24  [CRC OK]
13:28:02.203    COM15                          RAW: 04 04 1B 64 00 18 B7 6E
13:28:02.235    COM15                   RX     Read Input Regs  unit=4  addr=12295  qty=9223  [CRC FAIL calc=1703 recv=0000]
13:28:02.235    COM15                          RAW: 04 04 30 07 24 07 0B 00 00 00 00 00 00 07 1D 06 F3 00 00 00 00 00 00 07 05 03 9B 00 00 00 00 00
13:28:02.346    COM15                   RX     FC07  unit=0  [CRC FAIL calc=3273 recv=19B5]
13:28:02.346    COM15                          RAW: 00 07 0A 06 F9 00 00 00 00 00 00 07 20 03 9A 00 00 00 00 51 2B 03 04 13 88 00 0B 34 81 03 04 16 0B B8 00 02 0F 38 BA C9 00 04 09 36 00 00 01 E9 2F 5F 00 03 29 59 91 36 07 04 13 E4 00 08 B5 19
13:28:02.394    COM15                   RX     Read Input Regs  unit=7  addr=4351  qty=65535  [CRC FAIL calc=8F74 recv=9474]
13:28:02.394    COM15                          RAW: 07 04 10 FF FF FF FF FF FF FF FF FF FF FF FF FF FF FF FF 9D D4 02 04 13 98 00 08 74 94
13:28:02.441    COM15                   RX     Read Input Regs  unit=2  addr=4194  qty=37888  [CRC FAIL calc=A4B6 recv=BFB6]
13:28:02.441    COM15                          RAW: 02 04 10 62 94 00 03 20 6F 20 60 20 4D 05 EA 05 E9 05 E8 9B F7 05 04 1B 64 00 18 B6 BF
13:28:02.505    COM15                   RX     Read Input Regs  unit=5  addr=12295  qty=13831  [CRC OK]
13:28:02.505    COM15                          RAW: 05 04 30 07 36 07 3D 00 00 00 00 00 00 07 26 07 32 00 00 00 00 00 00 07 25 03 9F 00 00 00 00 00 00 07 23 07 24 00 00 00 00 00 00 07 20 03 98 00 00 00 00 9C 59
13:28:02.583    COM15                   RX     Read Input Regs  unit=1  addr=5080  qty=3  [CRC FAIL calc=FD55 recv=7289]
13:28:02.583    COM15                          RAW: 01 04 13 D8 00 03 34 B4 01 04 06 00 01 00 02 FF FF FD 23 06 04 14 1B 00 04 85 89 06 04 08 13 96 FF FF 00 00 00 00 89 72
13:28:02.615    COM15                   RX     Read Input Regs  unit=4  addr=5000  qty=11  [CRC OK]
13:28:02.615    COM15                          RAW: 04 04 13 88 00 0B 35 36
13:28:02.662    COM15                   RX     Read Input Regs  unit=4  addr=5643  qty=47104  [CRC FAIL calc=5E75 recv=4575]
13:28:02.662    COM15                          RAW: 04 04 16 0B B8 00 02 0E 57 75 42 00 04 09 3E 00 00 01 E2 02 3E 00 03 29 53 02 98 03 04 13 98 00 08 75 45
13:28:02.726    COM15                   RX     Read Input Regs  unit=3  addr=4153  qty=53248  [CRC FAIL calc=4EAF recv=8E8D]
13:28:02.726    COM15                          RAW: 03 04 10 39 D0 00 03 20 8D 20 83 20 7B 05 AA 05 A8 05 A5 DF 91 07 04 14 1B 00 04 84 58 07 04 08 13 96 FF FF 00 00 00 00 8D 8E
13:28:02.773    COM15                   RX     Read Input Regs  unit=2  addr=5030  qty=6  [CRC FAIL calc=4F25 recv=F065]
13:28:02.773    COM15                          RAW: 02 04 13 A6 00 06 94 9C 02 04 0C 50 CA 00 03 DE 26 FF FF 03 E7 01 F5 65 F0
13:28:02.805    COM15                   RX     Read Input Regs  unit=5  addr=5000  qty=11  [CRC OK]
13:28:02.805    COM15                          RAW: 05 04 13 88 00 0B 34 E7
13:28:02.853    COM15                   RX     Read Input Regs  unit=5  addr=5643  qty=47104  [CRC FAIL calc=64B5 recv=7FB5]
13:28:02.853    COM15                          RAW: 05 04 16 0B B8 00 02 0E 7E 7E C1 00 04 09 3E 00 00 01 DF 0F 39 00 03 29 7E 85 AC 01 04 13 E4 00 08 B5 7F
13:28:02.900    COM15                   RX     Read Input Regs  unit=1  addr=4351  qty=65535  [CRC FAIL calc=97B6 recv=8CB6]
13:28:02.900    COM15                          RAW: 01 04 10 FF FF FF FF FF FF FF FF FF FF FF FF FF FF FF FF 15 5C 06 04 1B 64 00 18 B6 8C
13:28:02.964    COM15                   RX     Read Input Regs  unit=6  addr=12295  qty=16387  [CRC OK]
13:28:02.964    COM15                          RAW: 06 04 30 07 40 03 9B 07 47 00 00 00 00 07 42 07 4A 07 48 00 00 00 00 07 2E 03 9C 00 00 00 00 00 00 07 35 07 46 00 00 00 00 00 00 07 30 03 9A 00 00 00 00 44 78
13:28:03.012    COM15                   RX     Read Input Regs  unit=4  addr=5016  qty=8  [CRC FAIL calc=FC25 recv=D801]
13:28:03.012    COM15                          RAW: 04 04 13 98 00 08 74 F2 04 04 10 0D E5 00 03 20 72 20 5E 20 50 05 61 05 64 05 63 01 D8
13:28:03.059    COM15                   RX     Read Input Regs  unit=3  addr=5030  qty=6  [CRC FAIL calc=4E91 recv=F1D1]
13:28:03.059    COM15                          RAW: 03 04 13 A6 00 06 95 4D 03 04 0C 2F D2 00 03 DF 49 FF FF 03 E7 01 F5 D1 F1
13:28:03.091    COM15                   RX     Read Input Regs  unit=7  addr=7012  qty=24  [CRC OK]
13:28:03.091    COM15                          RAW: 07 04 1B 64 00 18 B7 5D
13:28:03.123    COM15                   RX     Read Input Regs  unit=7  addr=12295  qty=14343  [CRC FAIL calc=CB6E recv=0000]
13:28:03.123    COM15                          RAW: 07 04 30 07 38 07 40 00 00 00 00 00 00 07 31 06 DF 00 00 00 00 00 00 07 35 07 37 00 00 00 00 00
13:28:03.186    COM15                   RX     Read Holding Regs  unit=0  addr=37891  qty=40448  [CRC FAIL calc=5152 recv=D3E9]
13:28:03.186    COM15                          RAW: 00 03 94 03 9E 00 00 00 00 00 00 03 A2 00 00 00 00 00 00 71 0D 02 04 13 D8 00 03 34 87 02 04 06 00 01 00 02 FF FF E9 D3
13:28:03.234    COM15                   RX     Read Input Regs  unit=5  addr=5016  qty=8  [CRC FAIL calc=AF0B recv=8B2F]
13:28:03.234    COM15                          RAW: 05 04 13 98 00 08 75 23 05 04 10 1D 56 00 03 20 A0 20 80 20 7A 05 72 05 71 05 71 2F 8B
13:28:03.297    COM15                   RX     Read Input Regs  unit=1  addr=5147  qty=4  [CRC FAIL calc=EB10 recv=D434]
13:28:03.297    COM15                          RAW: 01 04 14 1B 00 04 84 3E 01 04 08 13 96 FF FF 00 00 00 00 93 06 06 04 13 88 00 0B 34 D4
13:28:03.328    COM15                   RX     Read Input Regs  unit=6  addr=5643  qty=47104  [CRC OK]
13:28:03.328    COM15                          RAW: 06 04 16 0B B8 00 02 10 9F 13 EC 00 05 09 36 00 00 01 E2 84 7B 00 03 29 89 E6 1F
13:28:03.407    COM15                   RX     Read Input Regs  unit=4  addr=5030  qty=6  [CRC FAIL calc=FC9E recv=43E4]
13:28:03.408    COM15                          RAW: 04 04 13 A6 00 06 94 FA 04 04 0C 02 E8 00 03 E1 15 FF FF 03 E7 01 F5 3A DA 03 04 13 D8 00 03 35 56 03 04 06 00 01 00 02 FF FF E4 43
13:28:03.439    COM15                   RX     Read Input Regs  unit=7  addr=5000  qty=11  [CRC OK]
13:28:03.439    COM15                          RAW: 07 04 13 88 00 0B 35 05
13:28:03.486    COM15                   RX     Read Input Regs  unit=7  addr=5643  qty=47104  [CRC FAIL calc=57B5 recv=4CB5]
13:28:03.487    COM15                          RAW: 07 04 16 0B B8 00 02 0C 72 78 54 00 03 08 D8 00 00 01 D2 A0 36 00 02 2A 12 E2 24 02 04 13 E4 00 08 B5 4C
13:28:03.534    COM15                   RX     Read Input Regs  unit=2  addr=4351  qty=65535  [CRC FAIL calc=3095 recv=2B95]
13:28:03.534    COM15                          RAW: 02 04 10 FF FF FF FF FF FF FF FF FF FF FF FF FF FF FF FF 51 18 05 04 13 A6 00 06 95 2B
13:28:03.582    COM15                   RX     Read Input Regs  unit=5  addr=3086  qty=39168  [CRC FAIL calc=20B7 recv=3BB7]
13:28:03.582    COM15                          RAW: 05 04 0C 0E 99 00 03 E0 A7 FF FF 03 E7 01 F5 16 30 01 04 1B 64 00 18 B7 3B
13:28:03.661    COM15                   RX     Read Input Regs  unit=1  addr=12295  qty=14855  [CRC FAIL calc=0B75 recv=1075]
13:28:03.661    COM15                          RAW: 01 04 30 07 3A 07 31 07 2C 00 00 00 00 07 19 07 14 00 00 00 00 00 00 07 1D 07 1D 00 00 00 00 00 00 07 1A 07 18 00 00 00 00 00 00 07 2A 07 21 00 00 00 00 B1 5A 06 04 13 98 00 08 75 10
13:28:03.725    COM15                   RX     Read Input Regs  unit=6  addr=4250  qty=4864  [CRC FAIL calc=F3B8 recv=73C2]
13:28:03.725    COM15                          RAW: 06 04 10 9A 13 00 03 20 70 20 70 20 68 06 4A 06 48 06 4A 63 34 04 04 13 D8 00 03 34 E1 04 04 06 00 01 00 02 FF FF C2 73
13:28:03.773    COM15                   RX     Read Input Regs  unit=3  addr=5092  qty=8  [CRC FAIL calc=C048 recv=E46C]
13:28:03.773    COM15                          RAW: 03 04 13 E4 00 08 B4 9D 03 04 10 FF FF FF FF FF FF FF FF FF FF FF FF FF FF FF FF 6C E4
13:28:03.821    COM15                   RX     Read Input Regs  unit=7  addr=5016  qty=8  [CRC FAIL calc=D056 recv=F472]
13:28:03.821    COM15                          RAW: 07 04 13 98 00 08 74 C1 07 04 10 B0 05 00 02 20 6C 20 58 20 47 04 B3 04 B7 04 B7 72 F4
13:28:03.900    COM15                   RX     Read Input Regs  unit=2  addr=5147  qty=4  [CRC FAIL calc=2C4B recv=E3CF]
13:28:03.900    COM15                          RAW: 02 04 14 1B 00 04 84 0D 02 04 08 13 96 FF FF 00 00 00 00 9C 42 05 04 13 D8 00 03 35 30 05 04 06 00 01 00 02 FF FF CF E3
13:28:03.948    COM15                   RX     Read Input Regs  unit=6  addr=5030  qty=6  [CRC FAIL calc=3558 recv=8A18]
13:28:03.948    COM15                          RAW: 06 04 13 A6 00 06 95 18 06 04 0C 86 65 00 03 DC 26 FF FF 03 E7 01 F5 18 8A
13:28:04.043    COM15                   RX     Read Input Regs  unit=4  addr=5092  qty=8  [CRC FAIL calc=7BAE recv=BE98]
13:28:04.043    COM15                          RAW: 04 04 13 E4 00 08 B5 2A 04 04 10 FF FF FF FF FF FF FF FF FF FF FF FF FF FF FF FF D9 90 03 04 14 1B 00 04 85 DC 03 04 08 13 96 FF FF 00 00 00 00 98 BE
13:28:04.106    COM15                   RX     Read Input Regs  unit=7  addr=5030  qty=6  [CRC FAIL calc=E8FD recv=08B7]
13:28:04.106    COM15                          RAW: 07 04 13 A6 00 06 94 C9 07 04 0C A1 80 00 02 E5 23 FF FF 03 E7 01 F5 70 1F 02 04 1B 64 00 18 B7 08
13:28:04.169    COM15                   RX     Read Input Regs  unit=2  addr=12295  qty=7175  [CRC OK]
13:28:04.169    COM15                          RAW: 02 04 30 07 1C 07 1F 00 00 00 00 00 00 07 17 07 02 00 00 00 00 00 00 07 24 07 1B 00 00 00 00 00 00 07 1C 07 06 00 00 00 00 00 00 07 29 07 0E 00 00 00 00 03 A6
13:28:04.217    COM15                   RX     Read Input Regs  unit=5  addr=5092  qty=8  [CRC FAIL calc=48C0 recv=6CE4]
13:28:04.217    COM15                          RAW: 05 04 13 E4 00 08 B4 FB 05 04 10 FF FF FF FF FF FF FF FF FF FF FF FF FF FF FF FF E4 6C
13:28:04.313    COM15                   RX     Read Input Regs  unit=6  addr=5080  qty=3  [CRC FAIL calc=03C5 recv=D9B6]
13:28:04.313    COM15                          RAW: 06 04 13 D8 00 03 35 03 06 04 06 00 01 00 02 FF FF DB 13 04 04 14 1B 00 04 84 6B 04 04 08 13 96 FF FF 00 00 00 00 82 CA 03 04 1B 64 00 18 B6 D9
13:28:04.439    COM15                   RX     Read Input Regs  unit=3  addr=12295  qty=14343  [CRC FAIL calc=3283 recv=BA85]
13:28:04.439    COM15                          RAW: 03 04 30 07 38 07 43 00 00 00 00 00 00 07 13 07 2F 00 00 00 00 00 00 07 13 03 A6 00 00 00 00 00 00 07 2C 07 23 00 00 00 00 00 00 07 26 03 96 00 00 00 00 B2 34 07 04 13 D8 00 03 34 D2 07 04 06 00 01 00 02 FF FF D6 83 05 04 14 1B 00 04 85 BA
13:28:04.487    COM15                   RX     Read Input Regs  unit=5  addr=2067  qty=38655  [CRC FAIL calc=D3B4 recv=C8B4]
13:28:04.487    COM15                          RAW: 05 04 08 13 96 FF FF 00 00 00 00 86 36 06 04 13 E4 00 08 B4 C8
13:28:04.535    COM15                   RX     Read Input Regs  unit=6  addr=4351  qty=65535  [CRC FAIL calc=75B7 recv=6EB7]
13:28:04.535    COM15                          RAW: 06 04 10 FF FF FF FF FF FF FF FF FF FF FF FF FF FF FF FF A0 28 04 04 1B 64 00 18 B7 6E
13:28:04.566    COM15                   RX     Read Input Regs  unit=4  addr=12295  qty=13831  [CRC FAIL calc=1A28 recv=0000]
13:28:04.566    COM15                          RAW: 04 04 30 07 36 07 22 00 00 00 00 00 00 07 2A 07 04 00 00 00 00 00 00 07 15 03 A1 00 00 00 00 00
13:28:04.598    COM15                   RX     FC07  unit=0  [CRC FAIL calc=6B5E recv=5D8E]
13:28:04.598    COM15                          RAW: 00 07 14 07 0C 00 00 00 00 00 00 07 1E 03 97 00 00 00 00 8E 5D
13:28:04.677    COM15                   RX     Read Input Regs  unit=7  addr=5092  qty=8  [CRC FAIL calc=4DD1 recv=BFB6]
13:28:04.677    COM15                          RAW: 07 04 13 E4 00 08 B5 19 07 04 10 FF FF FF FF FF FF FF FF FF FF FF FF FF FF FF FF 9D D4 05 04 1B 64 00 18 B6 BF
13:28:04.726    COM15                   RX     Read Input Regs  unit=5  addr=12295  qty=18183  [CRC OK]
13:28:04.726    COM15                          RAW: 05 04 30 07 47 07 51 00 00 00 00 00 00 07 31 07 40 00 00 00 00 00 00 07 2D 03 A1 00 00 00 00 00 00 07 29 07 2D 00 00 00 00 00 00 07 29 03 9A 00 00 00 00 B3 F9
13:28:04.837    COM15                   RX     Read Input Regs  unit=6  addr=5147  qty=4  [CRC FAIL calc=5FE1 recv=8CB6]
13:28:04.837    COM15                          RAW: 06 04 14 1B 00 04 85 89 06 04 08 13 96 FF FF 00 00 00 00 89 72 07 04 14 1B 00 04 84 58 07 04 08 13 96 FF FF 00 00 00 00 8D 8E 06 04 1B 64 00 18 B6 8C
13:28:04.900    COM15                   RX     Read Input Regs  unit=6  addr=12295  qty=18435  [CRC OK]
13:28:04.900    COM15                          RAW: 06 04 30 07 48 03 9C 07 52 00 00 00 00 07 4B 07 55 07 52 00 00 00 00 07 39 03 9F 00 00 00 00 00 00 07 4F 07 5E 00 00 00 00 00 00 07 45 03 A1 00 00 00 00 E6 3D
13:28:04.932    COM15                   RX     Read Input Regs  unit=7  addr=7012  qty=24  [CRC OK]
13:28:04.932    COM15                          RAW: 07 04 1B 64 00 18 B7 5D
13:28:04.963    COM15                   RX     Read Input Regs  unit=7  addr=12295  qty=19207  [CRC FAIL calc=621E recv=0000]
13:28:04.963    COM15                          RAW: 07 04 30 07 4B 07 54 00 00 00 00 00 00 07 39 06 E5 00 00 00 00 00 00 07 46 07 49 00 00 00 00 00
13:28:04.995    COM15                   RX     Read Holding Regs  unit=0  addr=39683  qty=42240  [CRC FAIL calc=2A29 recv=FB00]
13:28:04.995    COM15                          RAW: 00 03 9B 03 A5 00 00 00 00 00 00 03 A2 00 00 00 00 00 00 00 FB
